(0.000000) can0 110#02202e1300181300 
(0.000177) can0 300#0003009000461501 
(0.000406) can0 120#00322328164e7000 
(0.001468) can0 140#830320fcdd000000 
(0.001685) can0 280#039c039e0399039b 
(0.004577) can0 180#a045ffe8f200     
(0.010492) can0 110#02203a1300181300 
(0.010725) can0 120#00323328164e7000 
(0.010970) can0 1a0#000c306100000000 
(0.011466) can0 140#800320fce0000000 
(0.011698) can0 280#03990398039b039e 
(0.014551) can0 180#a04bffe8fc00     
(0.019911) can0 110#02203a1300181300 
(0.020144) can0 120#00323328164e7000 
(0.021466) can0 140#810320fcdf000000 
(0.021695) can0 280#0398039a039a0399 
(0.024549) can0 180#a0b1ffe80600     
(0.029909) can0 110#02202e1300181300 
(0.030143) can0 120#00323328164e7000 
(0.031461) can0 140#820320fcde000000 
(0.031696) can0 280#03990397039a0397 
(0.031940) can0 290#12000d0013800e00 
(0.034564) can0 180#a0a7ffe81000     
(0.039899) can0 110#02203b1300181300 
(0.040131) can0 120#00324328164e7000 
(0.041456) can0 140#830320fcdd000000 
(0.041690) can0 280#039c039b03950396 
(0.041880) can0 383#2c000040ff       
(0.044575) can0 180#a0adffe81a00     
(0.049832) can0 110#02203b1300181300 
(0.050066) can0 120#00324328164e7000 
(0.051458) can0 140#800320fce0000000 
(0.051691) can0 280#039a039803950398 
(0.054633) can0 180#a093ffe82400     
(0.059862) can0 110#0220291300181300 
(0.060096) can0 120#00324328164e7000 
(0.060339) can0 1a0#000c306100000000 
(0.061458) can0 140#810320fcdf000000 
(0.061691) can0 280#0398039a03960395 
(0.064550) can0 180#a099ffe82e00     
(0.069841) can0 110#0220341300181300 
(0.070073) can0 120#00324328164e7000 
(0.070317) can0 301#0000190000510300 
(0.071453) can0 140#820320fcde000000 
(0.071687) can0 280#039b039703960393 
(0.074553) can0 180#a08fffe83800     
(0.079877) can0 110#0220341300181300 
(0.080111) can0 120#00324328164e7000 
(0.081445) can0 140#830320fcdd000000 
(0.081681) can0 280#039a039a03960394 
(0.084523) can0 380#30ba5e00c3fb0000 
(0.084742) can0 180#a0f5ffe84200     
(0.085017) can0 381#097f00a002740004 
(0.089882) can0 110#0220231300181300 
(0.090122) can0 410#000da338a0399c00 
(0.090355) can0 120#00325328164e7000 
(0.091465) can0 140#800320fce0000000 
(0.091701) can0 280#039b039903920394 
(0.094554) can0 180#a0fbffe84c00     
(0.099918) can0 110#02202e1300181300 
(0.100159) can0 300#0003009000461601 
(0.100393) can0 120#00325328164e7000 
(0.101458) can0 140#810320fcdf000000 
(0.101692) can0 280#0399039803940397 
(0.104570) can0 180#a0e1ffe85600     
(0.109910) can0 110#02202e1300181300 
(0.110146) can0 120#00325328164e7000 
(0.110389) can0 1a0#000c306100000000 
(0.111451) can0 140#820320fcde000000 
(0.111681) can0 280#039a039903960397 
(0.114553) can0 180#a0d7ffe86000     
(0.119964) can0 110#02201e1300181300 
(0.120197) can0 120#00325328164e7000 
(0.121467) can0 140#830320fcdd000000 
(0.121697) can0 280#0398039803980390 
(0.124552) can0 180#a0ddffe86a00     
(0.129924) can0 110#0220291300181300 
(0.130159) can0 120#00325328164e7000 
(0.131465) can0 140#800320fce0000000 
(0.131697) can0 280#0398039603940396 
(0.131937) can0 290#12800d8014000e00 
(0.134567) can0 180#a0c3ffe87400     
(0.140546) can0 110#0220181300181300 
(0.140780) can0 120#00325328164e7000 
(0.141445) can0 140#810320fcdf000000 
(0.141676) can0 280#0398039503930396 
(0.141866) can0 383#2c000040ff       
(0.144579) can0 180#a0c9ffe87e00     
(0.149913) can0 110#0220181300171300 
(0.150147) can0 120#00325328164e7000 
(0.151456) can0 140#820320fcde000000 
(0.151688) can0 280#0396039503930393 
(0.154636) can0 180#a03fffe88800     
(0.159913) can0 110#0220211300171300 
(0.160146) can0 120#00326328164e7000 
(0.160390) can0 1a0#000c306100000000 
(0.161467) can0 140#830320fcdd000000 
(0.161697) can0 280#0399039703970390 
(0.164551) can0 180#a025ffe89200     
(0.170534) can0 110#02200f1405171400 
(0.170766) can0 120#0032532a154e7000 
(0.171010) can0 301#0000190000510300 
(0.171456) can0 140#800320fce0000000 
(0.171688) can0 280#0397039b03940392 
(0.174554) can0 180#a02bffe89c00     
(0.179855) can0 110#02200f1400171400 
(0.180091) can0 120#0032532b154e7000 
(0.180331) can0 510#047e362700000000 
(0.181457) can0 140#810320fcdf000000 
(0.181687) can0 280#0397039903910393 
(0.184532) can0 380#60ba5e00c3fb0000 
(0.184748) can0 180#a011ffe8a600     
(0.185022) can0 381#097f00a002740004 
(0.189860) can0 110#0220171400171400 
(0.190098) can0 410#000d94391e399c00 
(0.190333) can0 120#0032532c154e7000 
(0.191455) can0 140#820320fcde000000 
(0.191685) can0 280#0397039503950396 
(0.194559) can0 180#a007ffe8b000     
(0.200364) can0 110#0220081400171400 
(0.200602) can0 300#0003009000461801 
(0.200837) can0 120#0032532d154e7000 
(0.201462) can0 140#830320fcdd000000 
(0.201694) can0 280#0397039503970396 
(0.204571) can0 180#a00dffe8ba00     
(0.209876) can0 110#0220081400171400 
(0.210108) can0 120#0032532d154e7000 
(0.210351) can0 1a0#000c306100000000 
(0.211461) can0 140#800320fce0000000 
(0.211696) can0 280#0398039603980392 
(0.214554) can0 180#a073ffe8c400     
(0.219960) can0 110#0220111400171400 
(0.220191) can0 120#0032532d154e7000 
(0.221452) can0 140#810320fcdf000000 
(0.221681) can0 280#0396039603950393 
(0.224556) can0 180#a079ffe8ce00     
(0.229922) can0 110#021ffa1400171400 
(0.230154) can0 120#0032532d154e7000 
(0.231450) can0 140#820320fcde000000 
(0.231683) can0 280#0396039403970395 
(0.231923) can0 290#12800d8014000e80 
(0.234575) can0 180#a06fffe8d800     
(0.239935) can0 110#021ffa1400171400 
(0.240169) can0 120#0032532d154e7000 
(0.241473) can0 140#830320fcdd000000 
(0.241708) can0 280#0397039503950394 
(0.241894) can0 383#2c000040ff       
(0.244578) can0 180#a055ffe8e200     
(0.249953) can0 110#0220011400171400 
(0.250185) can0 120#0032532d154e7000 
(0.251461) can0 140#800320fce0000000 
(0.251695) can0 280#03950395039f0395 
(0.254633) can0 180#a05bffe8ec00     
(0.259926) can0 110#021ff11400171400 
(0.260158) can0 120#0032432e154e7000 
(0.260402) can0 1a0#000c306100000000 
(0.261457) can0 140#810320fcdf000000 
(0.261686) can0 280#0395039b03980398 
(0.264557) can0 180#a041ffe8f600     
(0.269950) can0 110#021ff11400181400 
(0.270170) can0 120#0032432e154e7000 
(0.270407) can0 301#0000190000510300 
(0.271499) can0 140#820320fcde000000 
(0.271733) can0 280#0395039503950398 
(0.274597) can0 180#a0b7ffe80000     
(0.279961) can0 110#021ffc1400181400 
(0.280192) can0 120#0032532e154e7000 
(0.281489) can0 140#830320fcdd000000 
(0.281730) can0 280#0395039603960394 
(0.284558) can0 380#b0ba5e00c3fb0000 
(0.284773) can0 180#a0bdffe80a00     
(0.285053) can0 381#097f00a002740004 
(0.289929) can0 110#021feb1400181400 
(0.290162) can0 410#000d8c391e3a1a00 
(0.290394) can0 120#0032532e154e7000 
(0.291492) can0 140#800320fce0000000 
(0.291723) can0 280#03960393039a0394 
(0.294590) can0 180#a0a3ffe81400     
(0.299866) can0 110#021feb1400181400 
(0.300106) can0 300#0003009000461901 
(0.300337) can0 120#0032532e154e7000 
(0.301489) can0 140#810320fcdf000000 
(0.301720) can0 280#0397039403980393 
(0.304605) can0 180#a0a9ffe81e00     
(0.309890) can0 110#021ff71400181400 
(0.310121) can0 120#0032532e154e7000 
(0.310365) can0 1a0#000c306100000000 
(0.311486) can0 140#820320fcde000000 
(0.311719) can0 280#0395039403960391 
(0.311879) can0 295#03559e4a         
(0.314605) can0 180#a09fffe82800     
(0.319901) can0 110#021fe71400181400 
(0.320136) can0 120#0032532e154e7000 
(0.321495) can0 140#830320fcdd000000 
(0.321715) can0 280#0397039603930393 
(0.324588) can0 180#a085ffe83200     
(0.329912) can0 110#021fe71400181400 
(0.330137) can0 120#0032532e154e7000 
(0.331492) can0 140#800320fce0000000 
(0.331714) can0 280#0396039503940390 
(0.331955) can0 290#12800e0014000e80 
(0.334618) can0 180#a08bffe83c00     
(0.339986) can0 110#021ff51400191400 
(0.340219) can0 120#0032632e154e7000 
(0.341474) can0 140#810320fcdf000000 
(0.341705) can0 280#0395039003970394 
(0.341896) can0 383#2c000040ff       
(0.344612) can0 180#a0f1ffe84600     
(0.349952) can0 110#021fe91400191400 
(0.350187) can0 120#0032632e154e7000 
(0.351489) can0 140#820320fcde000000 
(0.351724) can0 280#0396039403930391 
(0.354670) can0 180#a0e7ffe85000     
(0.360510) can0 110#021ff71400191400 
(0.360745) can0 120#0032632e154e7000 
(0.360989) can0 1a0#000c306100000000 
(0.361482) can0 140#830320fcdd000000 
(0.361718) can0 280#0396039503910393 
(0.364591) can0 180#a0edffe85a00     
(0.369966) can0 110#021ff71400191400 
(0.370202) can0 120#0032632e154e7000 
(0.370446) can0 301#0000190000510300 
(0.371485) can0 140#800320fce0000000 
(0.371710) can0 280#0397039403940393 
(0.374597) can0 180#a0d3ffe86400     
(0.379971) can0 110#021fee1400191400 
(0.380201) can0 120#0032732e154e7000 
(0.381491) can0 140#810320fcdf000000 
(0.381718) can0 280#0394039303950394 
(0.384564) can0 380#e0ba5e00c3fb0000 
(0.384781) can0 180#a0d9ffe86e00     
(0.385054) can0 381#097f00a002740004 
(0.390527) can0 110#021ffb1400191400 
(0.390760) can0 410#000d94399c3a1a00 
(0.390997) can0 120#0032732e154e7000 
(0.391480) can0 140#820320fcde000000 
(0.391715) can0 280#039403940394038c 
(0.394593) can0 180#a0cfffe87800     
(0.399977) can0 110#021ffb1400191400 
(0.400204) can0 300#0003009000461a01 
(0.400434) can0 120#0032732e154e7000 
(0.401482) can0 140#830320fcdd000000 
(0.401707) can0 280#0395039403930391 
(0.404613) can0 180#a035ffe88200     
(0.409961) can0 110#021ff01400191400 
(0.410195) can0 120#0032832e154e7000 
(0.410438) can0 1a0#000c306100000000 
(0.411496) can0 140#800320fce0000000 
(0.411724) can0 280#039403940390038f 
(0.414592) can0 180#a03bffe88c00     
(0.420414) can0 110#021fff1400191400 
(0.420644) can0 120#0032832e154e7000 
(0.421482) can0 140#810320fcdf000000 
(0.421709) can0 280#039403940391038f 
(0.424592) can0 180#a021ffe89600     
(0.429898) can0 110#021fff1400191400 
(0.430134) can0 120#0032832e154e7000 
(0.431477) can0 140#820320fcde000000 
(0.431705) can0 280#039303910390038f 
(0.431946) can0 290#13000e0014800e80 
(0.434607) can0 180#a017ffe8a000     
(0.439959) can0 110#021ff61400191400 
(0.440194) can0 120#0032932e154e7000 
(0.441484) can0 140#830320fcdd000000 
(0.441714) can0 280#03930393038d0390 
(0.441904) can0 383#2c000040ff       
(0.444614) can0 180#a01dffe8aa00     
(0.449911) can0 110#0220061400191400 
(0.450145) can0 120#0032932e154e7000 
(0.451481) can0 140#800320fce0000000 
(0.451720) can0 280#03950395038f0391 
(0.454675) can0 180#a003ffe8b400     
(0.459918) can0 110#0220061400191400 
(0.460153) can0 120#0032932e154e7000 
(0.460396) can0 1a0#000c306100000000 
(0.461484) can0 140#810320fcdf000000 
(0.461710) can0 280#0393039403900390 
(0.464593) can0 180#a009ffe8be00     
(0.470003) can0 110#021ffa1400191400 
(0.470235) can0 120#0032a32e154e7000 
(0.470496) can0 301#0000190000510300 
(0.471475) can0 140#820320fcde000000 
(0.471705) can0 280#039303920394038f 
(0.474596) can0 180#a07fffe8c800     
(0.479992) can0 110#0220051400191400 
(0.480226) can0 120#0032a32e154e7000 
(0.481481) can0 140#830320fcdd000000 
(0.481705) can0 280#0393039203930392 
(0.484563) can0 380#30ba5e00c3fb0000 
(0.484788) can0 180#a065ffe8d200     
(0.485057) can0 381#097f00a0026a0004 
(0.489971) can0 110#0220051400191400 
(0.490207) can0 410#000d84399c3a1a00 
(0.490439) can0 120#0032a32e154e7000 
(0.491482) can0 140#800320fce0000000 
(0.491707) can0 280#03940391038f0393 
(0.494593) can0 180#a06bffe8dc00     
(0.499998) can0 110#021ff81400191400 
(0.500236) can0 300#0003009000461c01 
(0.500468) can0 120#0032a32e154e7000 
(0.501482) can0 140#810320fcdf000000 
(0.501710) can0 280#03940394038e038d 
(0.504609) can0 180#a051ffe8e600     
(0.509984) can0 110#0220031400191400 
(0.510214) can0 120#0032b32e154e7000 
(0.510457) can0 1a0#000c306100000000 
(0.511496) can0 140#820320fcde000000 
(0.511723) can0 280#039403930391038b 
(0.514592) can0 180#a047ffe8f000     
(0.519990) can0 110#0220031400191400 
(0.520223) can0 120#0032b32e154e7000 
(0.521486) can0 140#830320fcdd000000 
(0.521712) can0 280#039203940393038c 
(0.524596) can0 180#a04dffe8fa00     
(0.529963) can0 110#021ff21400191400 
(0.530194) can0 120#0032b32e154e7000 
(0.531484) can0 140#800320fce0000000 
(0.531711) can0 280#0393038f038f0391 
(0.531952) can0 290#13000e0014800f00 
(0.534610) can0 180#a0b3ffe80400     
(0.539952) can0 110#021ffa1400191400 
(0.540183) can0 120#0032b32e154e7000 
(0.541489) can0 140#810320fcdf000000 
(0.541715) can0 280#0395039303900392 
(0.541909) can0 383#2c000040ff       
(0.544620) can0 180#a0b9ffe80e00     
(0.549884) can0 110#021ffa1400191400 
(0.550117) can0 120#0032b32e154e7000 
(0.551475) can0 140#820320fcde000000 
(0.551705) can0 280#0395039203920394 
(0.554674) can0 180#a0afffe81800     
(0.559948) can0 110#021fee1400181400 
(0.560164) can0 120#0032c32e154e7000 
(0.560407) can0 1a0#000c306100000000 
(0.561479) can0 140#830320fcdd000000 
(0.561706) can0 280#0393039303950393 
(0.564595) can0 180#a095ffe82200     
(0.569903) can0 110#021ff31400181400 
(0.570135) can0 120#0032b32e154e7000 
(0.570379) can0 301#0000190000510300 
(0.571497) can0 140#800320fce0000000 
(0.571722) can0 280#0391039303930394 
(0.574595) can0 180#a09bffe82c00     
(0.580539) can0 110#021fdf1400181400 
(0.580771) can0 120#0032b32e154e7000 
(0.581484) can0 140#810320fcdf000000 
(0.581713) can0 280#0392038f03930395 
(0.584617) can0 380#60ba5e00c3fb0000 
(0.584839) can0 180#a081ffe83600     
(0.585087) can0 381#097f00a0026a0004 
(0.585308) can0 440#1c0b06000000     
(0.585531) can0 4a0#00008fef0000     
(0.585751) can0 531#030028010100     
(0.589927) can0 110#021fdf1400181400 
(0.590163) can0 410#000d7d399c3a9800 
(0.590396) can0 120#0032b32e154e7000 
(0.591492) can0 140#820320fcde000000 
(0.591714) can0 280#039303940391038e 
(0.594611) can0 180#a0f7ffe84000     
(0.599990) can0 110#021fe61400181400 
(0.600228) can0 300#0003009000461d01 
(0.600462) can0 120#0032b32e154e7000 
(0.601485) can0 140#830320fcdd000000 
(0.601716) can0 280#039503930392038b 
(0.604639) can0 180#a0fdffe84a00     
(0.610546) can0 110#021fd71400181400 
(0.610776) can0 120#0032b32e154e7000 
(0.611020) can0 1a0#000c306100000000 
(0.611480) can0 140#800320fce0000000 
(0.611711) can0 280#039403930393038e 
(0.614596) can0 180#a0e3ffe85400     
(0.619986) can0 110#021fd71400181400 
(0.620208) can0 120#0032b32e154e7000 
(0.621482) can0 140#810320fcdf000000 
(0.621712) can0 280#0392039103920393 
(0.624596) can0 180#a0e9ffe85e00     
(0.629975) can0 110#021fdc1400181400 
(0.630208) can0 120#0032b32e154e7000 
(0.631487) can0 140#820320fcde000000 
(0.631718) can0 280#03940391038f0391 
(0.631957) can0 290#13800e8014800f00 
(0.634612) can0 180#a0dfffe86800     
(0.640632) can0 110#021fcb1400181400 
(0.640859) can0 120#0032b32e154e7000 
(0.641478) can0 140#830320fcdd000000 
(0.641714) can0 280#0392039203900390 
(0.641902) can0 383#2c000040ff       
(0.644617) can0 180#a0c5ffe87200     
(0.649956) can0 110#021fcb1400181400 
(0.650189) can0 120#0032b32e154e7000 
(0.651465) can0 140#800320fce0000000 
(0.651699) can0 280#03910392038f038f 
(0.654676) can0 180#a0cbffe87c00     
(0.659999) can0 110#021fd21400181400 
(0.660231) can0 120#0032b32e154e7000 
(0.660477) can0 1a0#000c306100000000 
(0.661476) can0 140#810320fcdf000000 
(0.661712) can0 280#03910390038f0390 
(0.664594) can0 180#a031ffe88600     
(0.670019) can0 110#021fc51400181400 
(0.670254) can0 120#0032b32e154e7000 
(0.670501) can0 301#0000190000510300 
(0.671469) can0 140#820320fcde000000 
(0.671705) can0 280#038f0390038f0395 
(0.674597) can0 180#a027ffe89000     
(0.679933) can0 110#021fc51505181500 
(0.680163) can0 120#0032b32f154e7000 
(0.680403) can0 510#047e362700000000 
(0.681479) can0 140#830320fcdd000000 
(0.681714) can0 280#038e038f038e038c 
(0.684585) can0 380#b0ba5e00c3fb0000 
(0.684788) can0 180#a02dffe89a00     
(0.685058) can0 381#097f00a0026a0004 
(0.689950) can0 110#021fd21500181500 
(0.690186) can0 410#000d753a1a3a9800 
(0.690416) can0 120#0032b331154e7000 
(0.691487) can0 140#800320fce0000000 
(0.691710) can0 280#039303910392038b 
(0.694600) can0 180#a013ffe8a400     
(0.699922) can0 110#021fc41605181600 
(0.700162) can0 300#0003009000461f01 
(0.700394) can0 120#0032a333154e7000 
(0.701495) can0 140#810320fcdf000000 
(0.701704) can0 280#03910391038e038c 
(0.704612) can0 180#a019ffe8ae00     
(0.709925) can0 110#021fc41600181600 
(0.710161) can0 120#0032a334154e7000 
(0.710404) can0 1a0#000c306100000000 
(0.711479) can0 140#820320fcde000000 
(0.711705) can0 280#03930390038f038e 
(0.714597) can0 180#a00fffe8b800     
(0.720029) can0 110#021fd41705181700 
(0.720262) can0 120#0032a336154e7000 
(0.721484) can0 140#830320fcdd000000 
(0.721712) can0 280#039103900390038e 
(0.724595) can0 180#a075ffe8c200     
(0.729978) can0 110#021fc91805181800 
(0.730211) can0 120#0032a338154e7000 
(0.731470) can0 140#800320fce0000000 
(0.731704) can0 280#03910390038f038c 
(0.731947) can0 290#13800e8015000f80 
(0.734610) can0 180#a07bffe8cc00     
(0.739980) can0 110#021fc91a05181a00 
(0.740207) can0 120#0032a339154e7000 
(0.741483) can0 140#810320fcdf000000 
(0.741708) can0 280#03910390038c0388 
(0.741898) can0 383#2c000040ff       
(0.744704) can0 180#a061ffe8d600     
(0.750009) can0 110#021fd61a00191a00 
(0.750201) can0 120#0032a33b154e7000 
(0.751474) can0 140#820320fcde000000 
(0.751714) can0 280#039003900390038c 
(0.754677) can0 180#a057ffe8e000     
(0.759999) can0 110#021fc91b05191b00 
(0.760224) can0 120#0032a33d154e7000 
(0.760468) can0 1a0#000c306100000000 
(0.761473) can0 140#830320fcdd000000 
(0.761708) can0 280#0390038d0393038e 
(0.764595) can0 180#a05dffe8ea00     
(0.769981) can0 110#021fc91b001a1b00 
(0.770215) can0 120#0032a340154e7000 
(0.770459) can0 301#0000190000510300 
(0.771480) can0 140#800320fce0000000 
(0.771713) can0 280#0390038f0397038c 
(0.774600) can0 180#a043ffe8f400     
(0.779979) can0 110#021fd51c051b1c00 
(0.780210) can0 120#0032b343154e7000 
(0.781481) can0 140#810320fcdf000000 
(0.781719) can0 280#038e0393038e038b 
(0.784571) can0 380#e0ba5e00c3fb0000 
(0.784789) can0 180#a049ffe8fe00     
(0.785060) can0 381#097f00a0026a0004 
(0.789959) can0 110#021fcc1c001d1c00 
(0.790196) can0 410#000d793a1a3b1600 
(0.790429) can0 120#0032b346154e7000 
(0.791481) can0 140#820320fcde000000 
(0.791713) can0 280#03910391038f038f 
(0.794604) can0 180#a0bfffe80800     
(0.799912) can0 110#021fcc1d051e1d00 
(0.800153) can0 300#0003009000462001 
(0.800391) can0 120#0032b34b154e7000 
(0.801475) can0 140#830320fcdd000000 
(0.801710) can0 280#03910390038e0391 
(0.804615) can0 180#a0a5ffe81200     
(0.809916) can0 110#021fde1d001f1d00 
(0.810150) can0 120#0032e350154e7000 
(0.810393) can0 1a0#000c306100000000 
(0.811483) can0 140#800320fce0000000 
(0.811723) can0 280#039103900390038f 
(0.814601) can0 180#a0abffe81c00     
(0.819907) can0 110#021fd21d00201d00 
(0.820144) can0 120#00330354154e7000 
(0.821466) can0 140#810320fcdf000000 
(0.821702) can0 280#039103900392038f 
(0.824601) can0 180#a091ffe82600     
(0.830515) can0 110#021fe31e05221e00 
(0.830751) can0 120#00330359154e7000 
(0.831473) can0 140#820320fcde000000 
(0.831710) can0 280#03900390038e038e 
(0.831953) can0 290#13800e8015000f80 
(0.834621) can0 180#a087ffe83000     
(0.840012) can0 110#021fe31e00211e00 
(0.840246) can0 120#00333359154e7000 
(0.841484) can0 140#830320fcdd000000 
(0.841712) can0 280#0391038e038d0391 
(0.841902) can0 383#2c000040ff       
(0.844621) can0 180#a08dffe83a00     
(0.849972) can0 110#021fdd1f05211f00 
(0.850206) can0 120#0033735d154e8000 
(0.851478) can0 140#800320fce0000000 
(0.851710) can0 280#0392038f038e038c 
(0.854681) can0 180#a0f3ffe84400     
(0.860523) can0 110#021ff01f00211f00 
(0.860756) can0 120#0033735d154e8000 
(0.861000) can0 1a0#000c306100000000 
(0.861477) can0 140#810320fcdf000000 
(0.861709) can0 280#0391038c038f038c 
(0.864685) can0 180#a0f9ffe84e00     
(0.870009) can0 110#021ff01f00211f00 
(0.870246) can0 120#0033a35d154e8000 
(0.870489) can0 301#0000190000510300 
(0.871493) can0 140#820320fcde000000 
(0.871714) can0 280#03920391038a038d 
(0.874600) can0 180#a0efffe85800     
(0.880017) can0 110#021fe72005232000 
(0.880253) can0 120#0033d362154e8000 
(0.881485) can0 140#830320fcdd000000 
(0.881714) can0 280#0392038f0388038a 
(0.884571) can0 380#30ba5e00c3fb0000 
(0.884789) can0 180#a0d5ffe86200     
(0.885065) can0 381#097f00a002740004 
(0.890614) can0 110#021fff2000232000 
(0.890858) can0 410#000d813a1a3b1600 
(0.891088) can0 120#00340362154e8000 
(0.891479) can0 140#800320fce0000000 
(0.891713) can0 280#0391038e038b038c 
(0.894601) can0 180#a0dbffe86c00     
(0.899992) can0 110#021fff2000232000 
(0.900235) can0 300#0003009000462201 
(0.900469) can0 120#00340362154e8000 
(0.901485) can0 140#810320fcdf000000 
(0.901710) can0 280#038f038d038c0386 
(0.904619) can0 180#a0c1ffe87600     
(0.910027) can0 110#021ffa2000232000 
(0.910261) can0 120#00344362154e8000 
(0.910505) can0 1a0#000c306100000000 
(0.911478) can0 140#820320fcde000000 
(0.911708) can0 280#038d038f038d038e 
(0.914601) can0 180#a037ffe88000     
(0.920101) can0 110#02200d2000232000 
(0.920334) can0 120#00347362154e8000 
(0.921489) can0 140#830320fcdd000000 
(0.921719) can0 280#03910390038c038d 
(0.924599) can0 180#a03dffe88a00     
(0.929928) can0 110#02200d2000232000 
(0.930161) can0 120#00347362154e8000 
(0.931492) can0 140#800320fce0000000 
(0.931709) can0 280#03940390038b038d 
(0.931951) can0 290#14000f0015800f80 
(0.934617) can0 180#a023ffe89400     
(0.940004) can0 110#0220052000232000 
(0.940237) can0 120#0034a362154e8000 
(0.941492) can0 140#810320fcdf000000 
(0.941721) can0 280#0391038f038c038c 
(0.941911) can0 383#2c000040ff       
(0.944622) can0 180#a029ffe89e00     
(0.949942) can0 110#02201b2000232000 
(0.950175) can0 120#0034d362154e9000 
(0.951488) can0 140#820320fcde000000 
(0.951714) can0 280#038f038f038f038b 
(0.954680) can0 180#a01fffe8a800     
(0.959964) can0 110#02201b2000232000 
(0.960195) can0 120#0034d362154e9000 
(0.960439) can0 1a0#000c306100000000 
(0.961475) can0 140#830320fcdd000000 
(0.961702) can0 280#038f038f038c038c 
(0.964598) can0 180#a005ffe8b200     
(0.970001) can0 110#0220142000232000 
(0.970234) can0 120#00350362154e9000 
(0.970478) can0 301#0000190000510300 
(0.971486) can0 140#800320fce0000000 
(0.971712) can0 280#03910391038a038b 
(0.974600) can0 180#a00bffe8bc00     
(0.980000) can0 110#0220232000232000 
(0.980235) can0 120#00352362154e9000 
(0.981480) can0 140#810320fcdf000000 
(0.981703) can0 280#03910391038b038d 
(0.984577) can0 380#60ba5e00c3fb0000 
(0.984791) can0 180#a071ffe8c600     
(0.985066) can0 381#097f00a002740004 
(0.989999) can0 110#0220232000232000 
(0.990237) can0 410#000d7d3a983b1600 
(0.990471) can0 120#00352362154e9000 
(0.991462) can0 140#820320fcde000000 
(0.991698) can0 280#03930390038e038c 
(0.994601) can0 180#a067ffe8d000     
(1.000033) can0 110#0220132000232000 
(1.000275) can0 300#0003009000462401 
(1.000505) can0 120#00354362154e9000 
(1.001486) can0 140#830320fcdd000000 
(1.001709) can0 280#0391038f0391038b 
(1.004642) can0 180#a06dffe8da00     
(1.010013) can0 110#02201b2000232000 
(1.010246) can0 120#00356362154e9000 
(1.010489) can0 1a0#000c306100000000 
(1.011481) can0 140#800320fce0000000 
(1.011713) can0 280#03910390038f038e 
(1.014600) can0 180#a053ffe8e400     
(1.019996) can0 110#02201b2000232000 
(1.020228) can0 120#00356362154e9000 
(1.021459) can0 140#810320fcdf000000 
(1.021697) can0 280#038f039003920391 
(1.024605) can0 180#a059ffe8ee00     
(1.029990) can0 110#02200c2000232000 
(1.030223) can0 120#00358362154e9000 
(1.031481) can0 140#820320fcde000000 
(1.031714) can0 280#039203920391038d 
(1.031956) can0 290#14000f0015801000 
(1.034620) can0 180#a04fffe8f800     
(1.039971) can0 110#0220122000232000 
(1.040205) can0 120#0035a362154e9000 
(1.041464) can0 140#830320fcdd000000 
(1.041697) can0 280#039303930393038e 
(1.041888) can0 383#2c000040ff       
(1.044630) can0 180#a0b5ffe80200     
(1.050560) can0 110#021ffc2000232000 
(1.050796) can0 120#0035a362154e9000 
(1.051463) can0 140#800320fce0000000 
(1.051697) can0 280#039403930391038e 
(1.054683) can0 180#a0bbffe80c00     
(1.059930) can0 110#021ffc2000232000 
(1.060162) can0 120#0035c362154e9000 
(1.060405) can0 1a0#000c306100000000 
(1.061486) can0 140#810320fcdf000000 
(1.061716) can0 280#0394039003900393 
(1.064604) can0 180#a0a1ffe81600     
(1.069932) can0 110#021ffc2000232000 
(1.070164) can0 120#0035e362154e9000 
(1.070412) can0 301#0000190000510300 
(1.071475) can0 140#820320fcde000000 
(1.071705) can0 280#039503920390038d 
(1.074606) can0 180#a097ffe82000     
(1.080594) can0 110#021fe62000232000 
(1.080828) can0 120#00360363154e9000 
(1.081472) can0 140#830320fcdd000000 
(1.081706) can0 280#039303930394038f 
(1.084574) can0 380#b0ba5e00c3fb0000 
(1.084791) can0 180#a09dffe82a00     
(1.085071) can0 381#097f00a002740004 
(1.090016) can0 110#021fe62000232000 
(1.090256) can0 410#000d8c3a983b9400 
(1.090489) can0 120#00360363154e9000 
(1.091479) can0 140#800320fce0000000 
(1.091700) can0 280#039503930393038e 
(1.094605) can0 180#a083ffe83400     
(1.100023) can0 110#021fed2000232000 
(1.100267) can0 300#0003009000462701 
(1.100499) can0 120#00362363154e9000 
(1.101471) can0 140#810320fcdf000000 
(1.101703) can0 280#0392039203930391 
(1.104619) can0 180#a089ffe83e00     
(1.110398) can0 110#021fda2000232000 
(1.110632) can0 120#00363363154e9000 
(1.110876) can0 1a0#000c306100000000 
(1.111476) can0 140#820320fcde000000 
(1.111705) can0 280#0393039303930392 
(1.114606) can0 180#a0ffffe84800     
(1.120023) can0 110#021fda2000232000 
(1.120257) can0 120#00363363154e9000 
(1.121478) can0 140#830320fcdd000000 
(1.121711) can0 280#039703940394038d 
(1.124601) can0 180#a0e5ffe85200     
(1.130066) can0 110#021fe42000232000 
(1.130298) can0 120#00364363154e9000 
(1.131468) can0 140#800320fce0000000 
(1.131700) can0 280#039603950395038f 
(1.131960) can0 290#14000f8015801000 
(1.134619) can0 180#a0ebffe85c00     
(1.140015) can0 110#021fde2000232000 
(1.140248) can0 120#00366363154e9000 
(1.141474) can0 140#810320fcdf000000 
(1.141702) can0 280#03970393038f038f 
(1.141891) can0 383#2c000040ff       
(1.144624) can0 180#a0d1ffe86600     
(1.149982) can0 110#021fde2000222000 
(1.150214) can0 120#00366363154e9000 
(1.151479) can0 140#820320fcde000000 
(1.151707) can0 280#0395039503910390 
(1.154687) can0 180#a0c7ffe87000     
(1.160062) can0 110#021fee2000222000 
(1.160289) can0 120#00366363154e9000 
(1.160533) can0 1a0#000c306100000000 
(1.161459) can0 140#830320fcdd000000 
(1.161690) can0 280#039503950392038f 
(1.164603) can0 180#a0cdffe87a00     
(1.169975) can0 110#021fe82000222000 
(1.170208) can0 120#00367363154e9000 
(1.170451) can0 301#0000190000510300 
(1.171472) can0 140#800320fce0000000 
(1.171701) can0 280#0396039603940391 
(1.174605) can0 180#a033ffe88400     
(1.179967) can0 110#021fe82000222000 
(1.180198) can0 120#00367363154e9000 
(1.180438) can0 510#047e362700000000 
(1.181477) can0 140#810320fcdf000000 
(1.181704) can0 280#039603950392038b 
(1.184577) can0 380#e0ba5e00c3fb0000 
(1.184793) can0 180#a039ffe88e00     
(1.185071) can0 381#097f00a002740004 
(1.189969) can0 110#021fff2000222000 
(1.190207) can0 410#000d903b163b9400 
(1.190443) can0 120#00368363154e9000 
(1.191474) can0 140#820320fcde000000 
(1.191700) can0 280#0393039403940394 
(1.194608) can0 180#a02fffe89800     
(1.199979) can0 110#0220042000222000 
(1.200224) can0 300#0003009000462901 
(1.200455) can0 120#00368363154ea000 
(1.201478) can0 140#830320fcdd000000 
(1.201720) can0 280#0394039603940394 
(1.204629) can0 180#a015ffe8a200     
(1.209974) can0 110#0220042000222000 
(1.210206) can0 120#00368363154ea000 
(1.210449) can0 1a0#000c306100000000 
(1.211481) can0 140#800320fce0000000 
(1.211710) can0 280#0399039503960393 
(1.214634) can0 180#a01bffe8ac00     
(1.220044) can0 110#02201b2000212000 
(1.220276) can0 120#00368363154ea000 
(1.221481) can0 140#810320fcdf000000 
(1.221705) can0 280#0396039703950391 
(1.224612) can0 180#a001ffe8b600     
(1.230017) can0 110#02201b2000212000 
(1.230252) can0 120#00368362154ea000 
(1.231479) can0 140#820320fcde000000 
(1.231707) can0 280#0397039603900393 
(1.231950) can0 290#14800f8016001000 
(1.234621) can0 180#a077ffe8c000     
(1.240032) can0 110#02201b2000212000 
(1.240664) can0 120#00368362154ea000 
(1.241477) can0 140#830320fcdd000000 
(1.241702) can0 280#0399039503960395 
(1.241892) can0 383#2c000040ff       
(1.244637) can0 180#a07dffe8ca00     
(1.250015) can0 110#02202e2000212000 
(1.250246) can0 120#00369362154ea000 
(1.251479) can0 140#800320fce0000000 
(1.251711) can0 280#0398039803950394 
(1.254688) can0 180#a063ffe8d400     
(1.260020) can0 110#0220282000212000 
(1.260254) can0 120#00369362154ea000 
(1.260497) can0 1a0#000c306100000000 
(1.261475) can0 140#810320fcdf000000 
(1.261698) can0 280#0397039803980390 
(1.264609) can0 180#a069ffe8de00     
(1.270626) can0 110#0220372000212000 
(1.270864) can0 120#00369362154ea000 
(1.271117) can0 301#0000190000510300 
(1.271473) can0 140#820320fcde000000 
(1.271701) can0 280#0397039803930392 
(1.274622) can0 180#a05fffe8e800     
(1.280009) can0 110#0220372000212000 
(1.280241) can0 120#00369362154ea000 
(1.281486) can0 140#830320fcdd000000 
(1.281706) can0 280#0399039603940397 
(1.284590) can0 380#30ba5e00c3fb0000 
(1.284802) can0 180#a045ffe8f200     
(1.285079) can0 381#097f00a002740004 
(1.289962) can0 110#02202c2000212000 
(1.290204) can0 410#000d943b163b9400 
(1.290433) can0 120#00368362154ea000 
(1.291480) can0 140#800320fce0000000 
(1.291710) can0 280#039a039703940394 
(1.294636) can0 180#a04bffe8fc00     
(1.300523) can0 110#0220362000202000 
(1.300760) can0 300#0003009000462c01 
(1.300996) can0 120#00368362154ea000 
(1.301474) can0 140#810320fcdf000000 
(1.301708) can0 280#03990397039d0394 
(1.304631) can0 180#a0b1ffe80600     
(1.309949) can0 110#0220362000202000 
(1.310181) can0 120#00368362154ea000 
(1.310425) can0 1a0#000c306100000000 
(1.311479) can0 140#820320fcde000000 
(1.311696) can0 280#0398039d03970397 
(1.311858) can0 295#0355be49         
(1.314683) can0 180#a0a7ffe81000     
(1.320040) can0 110#0220292000202000 
(1.320273) can0 120#00367363154ea000 
(1.321502) can0 140#830320fcdd000000 
(1.321721) can0 280#039a039903980399 
(1.324633) can0 180#a0adffe81a00     
(1.330003) can0 110#02202f2000202000 
(1.330235) can0 120#00367363154ea000 
(1.331474) can0 140#800320fce0000000 
(1.331699) can0 280#039b039b039a039b 
(1.331948) can0 290#14800f8016001080 
(1.334642) can0 180#a093ffe82400     
(1.340051) can0 110#02202f2000202000 
(1.340282) can0 120#00367363154ea000 
(1.341480) can0 140#810320fcdf000000 
(1.341705) can0 280#039a0398039b0398 
(1.341893) can0 383#2c000040ff       
(1.344639) can0 180#a099ffe82e00     
(1.350075) can0 110#02201d2000202000 
(1.350308) can0 120#00367363154ea000 
(1.351466) can0 140#820320fcde000000 
(1.351696) can0 280#039c039b039c0397 
(1.354701) can0 180#a08fffe83800     
(1.360063) can0 110#0220232000202000 
(1.360297) can0 120#00366363154ea000 
(1.360542) can0 1a0#000c306100000000 
(1.361468) can0 140#830320fcdd000000 
(1.361699) can0 280#039a039c039b0398 
(1.364637) can0 180#a0f5ffe84200     
(1.370053) can0 110#0220232000202000 
(1.370287) can0 120#00366363154ea000 
(1.370529) can0 301#0000190000510300 
(1.371463) can0 140#800320fce0000000 
(1.371710) can0 280#039c039c0399039b 
(1.374625) can0 180#a0fbffe84c00     
(1.380076) can0 110#0220172000202000 
(1.380311) can0 120#00366363154ea000 
(1.381475) can0 140#810320fcdf000000 
(1.381702) can0 280#039d039a039a0399 
(1.384595) can0 380#60ba5e00c3fb0000 
(1.384810) can0 180#a0e1ffe85600     
(1.385089) can0 381#097f00a002740004 
(1.390056) can0 110#0220262000202000 
(1.390292) can0 410#000da63b163c1200 
(1.390523) can0 120#00365363154ea000 
(1.391457) can0 140#820320fcde000000 
(1.391689) can0 280#039d0398039a0397 
(1.394619) can0 180#a0d7ffe86000     
(1.400048) can0 110#0220262000202000 
(1.400284) can0 300#0003009000462e01 
(1.400516) can0 120#00365363154ea000 
(1.401465) can0 140#830320fcdd000000 
(1.401696) can0 280#039d039b03970398 
(1.404634) can0 180#a0ddffe86a00     
(1.410059) can0 110#02201a2000202000 
(1.410286) can0 120#00365363154ea000 
(1.410530) can0 1a0#000c306100000000 
(1.411477) can0 140#800320fce0000000 
(1.411708) can0 280#039e039e0397039c 
(1.414618) can0 180#a0c3ffe87400     
(1.419997) can0 110#0220272000202000 
(1.420225) can0 120#00365363154ea000 
(1.421502) can0 140#810320fcdf000000 
(1.421705) can0 280#039d039f039a0398 
(1.424620) can0 180#a0c9ffe87e00     
(1.430617) can0 110#0220232000202000 
(1.430847) can0 120#00365363154ea000 
(1.431473) can0 140#820320fcde000000 
(1.431705) can0 280#039b039c039d039c 
(1.431948) can0 290#1500100016001080 
(1.434637) can0 180#a03fffe88800     
(1.440029) can0 110#0220232000202000 
(1.440260) can0 120#00363363154ea000 
(1.441480) can0 140#830320fcdd000000 
(1.441703) can0 280#039c039c039c0398 
(1.441891) can0 383#2c000040ff       
(1.444643) can0 180#a025ffe89200     
(1.450003) can0 110#0220382000202000 
(1.450235) can0 120#00364363154ea000 
(1.451583) can0 140#800320fce0000000 
(1.451744) can0 280#039c039b039c039c 
(1.454696) can0 180#a02bffe89c00     
(1.460619) can0 110#0220322000202000 
(1.460855) can0 120#00364363154ea000 
(1.461095) can0 1a0#000c306100000000 
(1.461467) can0 140#810320fcdf000000 
(1.461699) can0 280#039b039c0399039b 
(1.464611) can0 180#a011ffe8a600     
(1.470044) can0 110#0220322000202000 
(1.470277) can0 120#00364363154ea000 
(1.470521) can0 301#0000190000510300 
(1.471460) can0 140#820320fcde000000 
(1.471685) can0 280#03a1039c039c0399 
(1.474617) can0 180#a007ffe8b000     
(1.480103) can0 110#02204b2000212000 
(1.480337) can0 120#00364362154ea000 
(1.481469) can0 140#830320fcdd000000 
(1.481693) can0 280#039c039d03980398 
(1.484584) can0 380#b0ba5e00c3fb0000 
(1.484799) can0 180#a00dffe8ba00     
(1.485075) can0 381#097f00a0026f0004 
(1.490053) can0 110#0220492000212000 
(1.490291) can0 410#000db93b943c1200 
(1.490523) can0 120#00363362154ea000 
(1.491476) can0 140#800320fce0000000 
(1.491705) can0 280#039d039c0396039b 
(1.494612) can0 180#a073ffe8c400     
(1.500041) can0 110#0220492000212000 
(1.500284) can0 300#0003009000463001 
(1.500517) can0 120#00363362154ea000 
(1.501470) can0 140#810320fcdf000000 
(1.501693) can0 280#03a0039e039b039c 
(1.504626) can0 180#a079ffe8ce00     
(1.510085) can0 110#02205d2000212000 
(1.510317) can0 120#00363362154ea000 
(1.510561) can0 1a0#000c306100000000 
(1.511475) can0 140#820320fcde000000 
(1.511708) can0 280#03a003a1039b0399 
(1.514616) can0 180#a06fffe8d800     
(1.520036) can0 110#0220532000212000 
(1.520268) can0 120#00363362154ea000 
(1.521476) can0 140#830320fcdd000000 
(1.521707) can0 280#039f039f03a00398 
(1.524611) can0 180#a055ffe8e200     
(1.530008) can0 110#0220532000212000 
(1.530240) can0 120#00363362154ea000 
(1.531472) can0 140#800320fce0000000 
(1.531698) can0 280#039e039e039d039c 
(1.531939) can0 290#1500100016801100 
(1.534627) can0 180#a05bffe8ec00     
(1.540003) can0 110#0220692000212000 
(1.540235) can0 120#00363362154ea000 
(1.541481) can0 140#810320fcdf000000 
(1.541711) can0 280#039f039b039d039e 
(1.541901) can0 383#2c000040ff       
(1.544638) can0 180#a041ffe8f600     
(1.549968) can0 110#0220632000212000 
(1.550196) can0 120#00363362154ea000 
(1.551471) can0 140#820320fcde000000 
(1.551699) can0 280#03a1039f039a039b 
(1.554696) can0 180#a0b7ffe80000     
(1.559980) can0 110#0220632000212000 
(1.560212) can0 120#00363362154ea000 
(1.560702) can0 1a0#000c306100000000 
(1.561468) can0 140#830320fcdd000000 
(1.561706) can0 280#03a103a203a2039b 
(1.564613) can0 180#a0bdffe80a00     
(1.570017) can0 110#0220732000212000 
(1.570249) can0 120#00363362154ea000 
(1.570493) can0 301#0000190000510300 
(1.571474) can0 140#800320fce0000000 
(1.571699) can0 280#039e03a6039e039e 
(1.574619) can0 180#a0a3ffe81400     
(1.580008) can0 110#0220662000212000 
(1.580240) can0 120#00363362154ea000 
(1.581490) can0 140#810320fcdf000000 
(1.581720) can0 280#03a0039d039f03a1 
(1.584632) can0 380#e0ba5e00c3fb0000 
(1.584846) can0 180#a0a9ffe81e00     
(1.585100) can0 381#097f00a0026f0004 
(1.585323) can0 440#1c0b06000000     
(1.585545) can0 4a0#00008fef0000     
(1.585767) can0 531#030028010100     
(1.590611) can0 110#0220722000212000 
(1.590846) can0 410#000dae3b943c9000 
(1.591086) can0 120#00363362154ea000 
(1.591463) can0 140#820320fcde000000 
(1.591694) can0 280#03a1039e03a0039f 
(1.594614) can0 180#a09fffe82800     
(1.600064) can0 110#0220722000212000 
(1.600303) can0 300#0003009000463201 
(1.600535) can0 120#00363362154ea000 
(1.601465) can0 140#830320fcdd000000 
(1.601698) can0 280#03a203a003a2039d 
(1.604629) can0 180#a085ffe83200     
(1.610093) can0 110#0220672000212000 
(1.610324) can0 120#00363362154ea000 
(1.610568) can0 1a0#000c306100000000 
(1.611471) can0 140#800320fce0000000 
(1.611696) can0 280#03a303a403a2039e 
(1.614621) can0 180#a08bffe83c00     
(1.620112) can0 110#0220762000212000 
(1.620344) can0 120#00363362154ea000 
(1.621486) can0 140#810320fcdf000000 
(1.621711) can0 280#03a203a203a0039f 
(1.624619) can0 180#a0f1ffe84600     
(1.630051) can0 110#0220762000212000 
(1.630283) can0 120#00363362154ea000 
(1.631457) can0 140#820320fcde000000 
(1.631700) can0 280#03a3039f039e03a0 
(1.631935) can0 290#1500108016801100 
(1.634632) can0 180#a0e7ffe85000     
(1.640094) can0 110#02206b2000212000 
(1.640324) can0 120#00363362154ea000 
(1.641462) can0 140#830320fcdd000000 
(1.641698) can0 280#03a203a0039f039c 
(1.641889) can0 383#2c000040ff       
(1.644641) can0 180#a0edffe85a00     
(1.650041) can0 110#02207a2000212000 
(1.650277) can0 120#00364362154ea000 
(1.651472) can0 140#800320fce0000000 
(1.651700) can0 280#03a403a303a0039c 
(1.654695) can0 180#a0d3ffe86400     
(1.660027) can0 110#02207a2000212000 
(1.660263) can0 120#00364362154ea000 
(1.660506) can0 1a0#000c306100000000 
(1.661468) can0 140#810320fcdf000000 
(1.661696) can0 280#03a403a3039d039c 
(1.664617) can0 180#a0d9ffe86e00     
(1.670021) can0 110#02206c2000212000 
(1.670251) can0 120#00363362154ea000 
(1.670496) can0 301#0000190000510300 
(1.671472) can0 140#820320fcde000000 
(1.671703) can0 280#03a303a2039f03a0 
(1.674620) can0 180#a0cfffe87800     
(1.680024) can0 110#02207c2000212000 
(1.680255) can0 120#00363362154ea000 
(1.680495) can0 510#047e362700000000 
(1.681468) can0 140#830320fcdd000000 
(1.681693) can0 280#03a303a203a1039c 
(1.684589) can0 380#30ba5e00c3fb0000 
(1.684809) can0 180#a035ffe88200     
(1.685080) can0 381#097f00a0026f0004 
(1.690020) can0 110#02207c2000212000 
(1.690258) can0 410#000dc13c123c9000 
(1.690490) can0 120#00363362154ea000 
(1.691466) can0 140#800320fce0000000 
(1.691693) can0 280#03a203a303a303a2 
(1.694619) can0 180#a03bffe88c00     
(1.700014) can0 110#02206e2000212000 
(1.700256) can0 300#0003009000463401 
(1.700488) can0 120#00363362154ea000 
(1.701459) can0 140#810320fcdf000000 
(1.701695) can0 280#03a403a403a0039b 
(1.704641) can0 180#a021ffe89600     
(1.710062) can0 110#02207d2000212000 
(1.710295) can0 120#00363362154ea000 
(1.710538) can0 1a0#000c306100000000 
(1.711460) can0 140#820320fcde000000 
(1.711692) can0 280#03a403a2039e03a2 
(1.714615) can0 180#a017ffe8a000     
(1.720650) can0 110#0220772000212000 
(1.720876) can0 120#00363362154ea000 
(1.721464) can0 140#830320fcdd000000 
(1.721699) can0 280#03a503a3039f03a1 
(1.724616) can0 180#a01dffe8aa00     
(1.730056) can0 110#0220772000212000 
(1.730288) can0 120#00363362154ea000 
(1.731470) can0 140#800320fce0000000 
(1.731704) can0 280#03a403a303a503a1 
(1.731943) can0 290#1580108017001100 
(1.734632) can0 180#a003ffe8b400     
(1.740109) can0 110#0220882000212000 
(1.740341) can0 120#00363362154ea000 
(1.741452) can0 140#810320fcdf000000 
(1.741690) can0 280#03a303a503a0039f 
(1.741881) can0 383#2c000040ff       
(1.744643) can0 180#a009ffe8be00     
(1.750062) can0 110#02207c2000212000 
(1.750295) can0 120#00363363154ef000 
(1.751465) can0 140#820320fcde000000 
(1.751698) can0 280#03a403a5039e039e 
(1.754702) can0 180#a07fffe8c800     
(1.760076) can0 110#02207c2000212000 
(1.760312) can0 120#00363363154ef000 
(1.760556) can0 1a0#000c306100000000 
(1.761468) can0 140#830320fcdd000000 
(1.761695) can0 280#03a503a503a3039f 
(1.764618) can0 180#a065ffe8d200     
(1.770113) can0 110#02208b2000212000 
(1.770317) can0 120#00364363154ef000 
(1.770550) can0 301#0000190000510300 
(1.771475) can0 140#800320fce0000000 
(1.771698) can0 280#03a503a303a303a0 
(1.774624) can0 180#a06bffe8dc00     
(1.780038) can0 110#0220842000212000 
(1.780268) can0 120#00364363154ef000 
(1.781464) can0 140#810320fcdf000000 
(1.781699) can0 280#03a303a403a403a0 
(1.784597) can0 380#60ba5e00c3fb0000 
(1.784813) can0 180#a051ffe8e600     
(1.785083) can0 381#097f00a0026f0004 
(1.789993) can0 110#0220842000212000 
(1.790236) can0 410#000dc83c123c9000 
(1.790467) can0 120#00364363154ef000 
(1.791458) can0 140#820320fcde000000 
(1.791691) can0 280#03a503a503a103a2 
(1.794619) can0 180#a047ffe8f000     
(1.800016) can0 110#0220922000212000 
(1.800255) can0 300#0003009000463601 
(1.800488) can0 120#00364363154ee000 
(1.801463) can0 140#830320fcdd000000 
(1.801695) can0 280#03a603a403a503a6 
(1.804636) can0 180#a04dffe8fa00     
(1.809992) can0 110#0220892000212000 
(1.810220) can0 120#00363363154ee000 
(1.810464) can0 1a0#000c306100000000 
(1.811476) can0 140#800320fce0000000 
(1.811707) can0 280#03a603a403a803a5 
(1.814621) can0 180#a0b3ffe80400     
(1.820622) can0 110#0220972000212000 
(1.820856) can0 120#00364363154ee000 
(1.821455) can0 140#810320fcdf000000 
(1.821689) can0 280#03a503a503a703a4 
(1.824635) can0 180#a0b9ffe80e00     
(1.830025) can0 110#0220972000212000 
(1.830257) can0 120#00364362154ee000 
(1.831471) can0 140#820320fcde000000 
(1.831692) can0 280#03a603a803a403a6 
(1.831935) can0 290#1580108017001180 
(1.834646) can0 180#a0afffe81800     
(1.840090) can0 110#02208d2000212000 
(1.840324) can0 120#00364363154ee000 
(1.841468) can0 140#830320fcdd000000 
(1.841691) can0 280#03a503a703a303a5 
(1.841880) can0 383#2c000040ff       
(1.844643) can0 180#a095ffe82200     
(1.850617) can0 110#02209d2000212000 
(1.850851) can0 120#00364362154ef000 
(1.851469) can0 140#800320fce0000000 
(1.851698) can0 280#03a803a503a503a2 
(1.854706) can0 180#a09bffe82c00     
(1.860069) can0 110#02209d2000212000 
(1.860302) can0 120#00364362154ef000 
(1.860545) can0 1a0#000c306100000000 
(1.861467) can0 140#810320fcdf000000 
(1.861694) can0 280#03a603a303a903a3 
(1.864624) can0 180#a081ffe83600     
(1.870118) can0 110#0220932000212000 
(1.870351) can0 120#00364362154ee000 
(1.870595) can0 301#0000190000510300 
(1.871471) can0 140#820320fcde000000 
(1.871703) can0 280#03a703a603a503a5 
(1.874626) can0 180#a0f7ffe84000     
(1.880095) can0 110#0220a32000212000 
(1.880328) can0 120#00364362154ee000 
(1.881468) can0 140#830320fcdd000000 
(1.881696) can0 280#03a803a703a403a6 
(1.884591) can0 380#b0ba5e00c3fb0000 
(1.884808) can0 180#a0fdffe84a00     
(1.885086) can0 381#097f00a0026f0004 
(1.890059) can0 110#0220a32000212000 
(1.890298) can0 410#000dd03c123d0f00 
(1.890532) can0 120#00364362154ee000 
(1.891470) can0 140#800320fce0000000 
(1.891699) can0 280#03a803a903a703a4 
(1.894621) can0 180#a0e3ffe85400     
(1.900093) can0 110#02209a2000212000 
(1.900316) can0 300#0003009000463901 
(1.900549) can0 120#00364362154ef000 
(1.901482) can0 140#810320fcdf000000 
(1.901708) can0 280#03a803a403a503a2 
(1.904635) can0 180#a0e9ffe85e00     
(1.910029) can0 110#0220a92000212000 
(1.910263) can0 120#00364362154ef000 
(1.910506) can0 1a0#000c306100000000 
(1.911473) can0 140#820320fcde000000 
(1.911698) can0 280#03aa03a803ab03a5 
(1.914622) can0 180#a0dfffe86800     
(1.920030) can0 110#0220a92000212000 
(1.920264) can0 120#00364362154ef000 
(1.921470) can0 140#830320fcdd000000 
(1.921699) can0 280#03aa03a803a403a5 
(1.924619) can0 180#a0c5ffe87200     
(1.930038) can0 110#02209e2000212000 
(1.930272) can0 120#00364362154ef000 
(1.931487) can0 140#800320fce0000000 
(1.931700) can0 280#03a803a903a503a6 
(1.931940) can0 290#1600110017001180 
(1.934637) can0 180#a0cbffe87c00     
(1.940036) can0 110#0220ae2000212000 
(1.940269) can0 120#00364362154ef000 
(1.941473) can0 140#810320fcdf000000 
(1.941702) can0 280#03a903a903a403a5 
(1.941887) can0 383#2c000040ff       
(1.944642) can0 180#a031ffe88600     
(1.950638) can0 110#0220a92000212000 
(1.950872) can0 120#00364362154ef000 
(1.951461) can0 140#820320fcde000000 
(1.951695) can0 280#03a803a703a803a0 
(1.954701) can0 180#a027ffe89000     
(1.960095) can0 110#0220a92000212000 
(1.960330) can0 120#00364362154ef000 
(1.960574) can0 1a0#000c306100000000 
(1.961465) can0 140#830320fcdd000000 
(1.961694) can0 280#03aa03a803a603a8 
(1.964624) can0 180#a02dffe89a00     
(1.970124) can0 110#0220ba2000212000 
(1.970356) can0 120#00364362154ef000 
(1.970600) can0 301#0000190000510300 
(1.971469) can0 140#800320fce0000000 
(1.971702) can0 280#03aa03a903a503a7 
(1.974628) can0 180#a013ffe8a400     
(1.980098) can0 110#0220b12000212000 
(1.980332) can0 120#00364362154ef000 
(1.981466) can0 140#810320fcdf000000 
(1.981693) can0 280#03a903a903a503a4 
(1.984595) can0 380#e0ba5e00c3fb0000 
(1.984811) can0 180#a019ffe8ae00     
(1.985091) can0 381#097f00a0026f0004 
(1.990085) can0 110#0220b12000212000 
(1.990324) can0 410#000ddb3c903d0f00 
(1.990556) can0 120#00363362154ef000 
(1.991464) can0 140#820320fcde000000 
(1.991697) can0 280#03a803a703a903a3 
(1.994625) can0 180#a00fffe8b800     
(2.000123) can0 110#0220bd2000212000 
(2.000363) can0 300#0003009000463b01 
(2.000595) can0 120#00363362154ef000 
(2.001472) can0 140#830320fcdd000000 
(2.001706) can0 280#03a803aa03a703a6 
(2.004644) can0 180#a075ffe8c200     
(2.010088) can0 110#0220b62000212000 
(2.010320) can0 120#00363362154ef000 
(2.010564) can0 1a0#000c306100000000 
(2.011446) can0 140#800320fce0000000 
(2.011678) can0 280#03ad03a903a603a6 
(2.014623) can0 180#a07bffe8cc00     
(2.020056) can0 110#0220b62000212000 
(2.020287) can0 120#00363362154ef000 
(2.021458) can0 140#810320fcdf000000 
(2.021683) can0 280#03a803ac03a603a7 
(2.024623) can0 180#a061ffe8d600     
(2.030060) can0 110#0220c42000212000 
(2.030291) can0 120#00363362154ef000 
(2.031478) can0 140#820320fcde000000 
(2.031698) can0 280#03a903a803a703a6 
(2.031937) can0 290#1600110017801200 
(2.034638) can0 180#a057ffe8e000     
(2.040021) can0 110#0220b62000212000 
(2.040252) can0 120#00363362154ef000 
(2.041456) can0 140#830320fcdd000000 
(2.041684) can0 280#03aa03aa03a403a3 
(2.041873) can0 383#2c000040ff       
(2.044647) can0 180#a05dffe8ea00     
(2.050631) can0 110#0220c52000212000 
(2.050862) can0 120#00363362154ef000 
(2.051451) can0 140#800320fce0000000 
(2.051683) can0 280#03ac03a703a803a6 
(2.054703) can0 180#a043ffe8f400     
(2.060008) can0 110#0220c52000212000 
(2.060240) can0 120#00363362154ef000 
(2.060483) can0 1a0#000c306100000000 
(2.061468) can0 140#810320fcdf000000 
(2.061693) can0 280#03ac03a803a903ab 
(2.064625) can0 180#a049ffe8fe00     
(2.070046) can0 110#0220bc2000212000 
(2.070276) can0 120#00363362154ef000 
(2.070521) can0 301#0000190000510300 
(2.071466) can0 140#820320fcde000000 
(2.071690) can0 280#03ab03ac03ad03a4 
(2.074630) can0 180#a0bfffe80800     
(2.080325) can0 110#0220c82000212000 
(2.080556) can0 120#00363362154ef000 
(2.081460) can0 140#830320fcdd000000 
(2.081685) can0 280#03a903ad03a603a5 
(2.084597) can0 380#30ba5e00c3fb0000 
(2.084815) can0 180#a0a5ffe81200     
(2.085089) can0 381#097f00a0026f0004 
(2.090092) can0 110#0220c82000212000 
(2.090332) can0 410#000ddf3c903d8d00 
(2.090564) can0 120#00363362154ef000 
(2.091456) can0 140#800320fce0000000 
(2.091683) can0 280#03ab03a803ab03a9 
(2.094627) can0 180#a0abffe81c00     
(2.100118) can0 110#0220ba2000212000 
(2.100359) can0 300#0003009000463e01 
(2.100591) can0 120#00363362154ef000 
(2.101458) can0 140#810320fcdf000000 
(2.101688) can0 280#03ad03ab03aa03ad 
(2.104644) can0 180#a091ffe82600     
(2.110096) can0 110#0220c92000212000 
(2.110326) can0 120#00363362154ef000 
(2.110570) can0 1a0#000c306100000000 
(2.111470) can0 140#820320fcde000000 
(2.111701) can0 280#03ad03ab03ab03aa 
(2.114625) can0 180#a087ffe83000     
(2.120104) can0 110#0220c92000212000 
(2.120339) can0 120#00363362154ef000 
(2.121461) can0 140#830320fcdd000000 
(2.121686) can0 280#03ad03ad03af03a9 
(2.124626) can0 180#a08dffe83a00     
(2.130110) can0 110#0220be2000212000 
(2.130342) can0 120#00363362154ef000 
(2.131466) can0 140#800320fce0000000 
(2.131693) can0 280#03a903ac03ab03aa 
(2.131932) can0 290#1600110017801200 
(2.134643) can0 180#a0f3ffe84400     
(2.140084) can0 110#0220c92000212000 
(2.140316) can0 120#00363362154ef000 
(2.141463) can0 140#810320fcdf000000 
(2.141688) can0 280#03ae03ab03ac03ad 
(2.141878) can0 383#2c000040ff       
(2.144654) can0 180#a0f9ffe84e00     
(2.150714) can0 110#0220bf2000212000 
(2.150956) can0 120#00363362154ef000 
(2.151460) can0 140#820320fcde000000 
(2.151695) can0 280#03af03ad03ac03a9 
(2.154707) can0 180#a0efffe85800     
(2.160054) can0 110#0220bf2000212000 
(2.160285) can0 120#00363362154ef000 
(2.160528) can0 1a0#000c306100000000 
(2.161453) can0 140#830320fcdd000000 
(2.161683) can0 280#03af03aa03ac03a9 
(2.164627) can0 180#a0d5ffe86200     
(2.170042) can0 110#0220ce2000212000 
(2.170274) can0 120#00363362154ef000 
(2.170518) can0 301#0000190000510300 
(2.171463) can0 140#800320fce0000000 
(2.171687) can0 280#03ae03ac03ac03ac 
(2.174631) can0 180#a0dbffe86c00     
(2.180464) can0 110#0220c72000212000 
(2.180696) can0 120#00363362154ef000 
(2.180934) can0 510#047e362700000000 
(2.181454) can0 140#810320fcdf000000 
(2.181688) can0 280#03af03ad03ac03a9 
(2.184607) can0 380#60ba5e00c3fb0000 
(2.184824) can0 180#a0c1ffe87600     
(2.185090) can0 381#097f00a0026f0004 
(2.190047) can0 110#0220c72000212000 
(2.190285) can0 410#000deb3c903d8d00 
(2.190517) can0 120#00363362154ef000 
(2.191465) can0 140#820320fcde000000 
(2.191689) can0 280#03ad03ad03ab03ae 
(2.194628) can0 180#a037ffe88000     
(2.200144) can0 110#0220d82000212000 
(2.200387) can0 300#0003009000464001 
(2.200620) can0 120#00363362154ef000 
(2.201455) can0 140#830320fcdd000000 
(2.201685) can0 280#03ad03ad03ad03a9 
(2.204642) can0 180#a03dffe88a00     
(2.210106) can0 110#0220d02000212000 
(2.210336) can0 120#00363362154ef000 
(2.210580) can0 1a0#000c306100000000 
(2.211459) can0 140#800320fce0000000 
(2.211690) can0 280#03af03ae03aa03ad 
(2.214629) can0 180#a023ffe89400     
(2.220103) can0 110#0220d02000212000 
(2.220335) can0 120#00363362154ef000 
(2.221472) can0 140#810320fcdf000000 
(2.221695) can0 280#03ad03ad03aa03a6 
(2.224623) can0 180#a029ffe89e00     
(2.230117) can0 110#0220e62000212000 
(2.230347) can0 120#00363362154ef000 
(2.231466) can0 140#820320fcde000000 
(2.231697) can0 280#03b003ae03ab03b0 
(2.231940) can0 290#1680118018001200 
(2.234654) can0 180#a01fffe8a800     
(2.240117) can0 110#0220de2000202000 
(2.240352) can0 120#00363362154ef000 
(2.241482) can0 140#830320fcdd000000 
(2.241701) can0 280#03b203ad03ad03aa 
(2.241891) can0 383#2c000040ff       
(2.244659) can0 180#a005ffe8b200     
(2.250749) can0 110#0220f22000202000 
(2.250979) can0 120#00363362154ef000 
(2.251472) can0 140#800320fce0000000 
(2.251706) can0 280#03ae03af03ac03aa 
(2.254714) can0 180#a00bffe8bc00     
(2.260098) can0 110#0220f22000202000 
(2.260326) can0 120#00362361154ef000 
(2.260569) can0 1a0#000c306100000000 
(2.261460) can0 140#810320fcdf000000 
(2.261690) can0 280#03af03af03a903ac 
(2.264630) can0 180#a071ffe8c600     
(2.270077) can0 110#0220e62000202000 
(2.270305) can0 120#00362361154ef000 
(2.270549) can0 301#0000190000510300 
(2.271459) can0 140#820320fcde000000 
(2.271695) can0 280#03b003ae03ae03ad 
(2.274636) can0 180#a067ffe8d000     
(2.280179) can0 110#0220f82000202000 
(2.280410) can0 120#00362361154ef000 
(2.281467) can0 140#830320fcdd000000 
(2.281693) can0 280#03b103b103ad03ac 
(2.284599) can0 380#b0ba5e00c3fb0000 
(2.284815) can0 180#a06dffe8da00     
(2.285094) can0 381#097f00a0026f0004 
(2.290024) can0 110#0220f82000202000 
(2.290260) can0 410#000df23d0f3d8d00 
(2.290491) can0 120#00361361154ef000 
(2.291462) can0 140#800320fce0000000 
(2.291695) can0 280#03ae03af03ae03ad 
(2.294629) can0 180#a053ffe8e400     
(2.300054) can0 110#0220f12000202000 
(2.300296) can0 300#0003009000464201 
(2.300527) can0 120#00362361154ef000 
(2.301464) can0 140#810320fcdf000000 
(2.301692) can0 280#03b103b003aa03a9 
(2.304647) can0 180#a059ffe8ee00     
(2.310023) can0 110#0221022000202000 
(2.310254) can0 120#00362361154ef000 
(2.310499) can0 1a0#000c306100000000 
(2.311454) can0 140#820320fcde000000 
(2.311687) can0 280#03b003ae03ac03b0 
(2.311850) can0 295#0355de48         
(2.314634) can0 180#a04fffe8f800     
(2.320071) can0 110#0221022000202000 
(2.320302) can0 120#00362361154ef000 
(2.321469) can0 140#830320fcdd000000 
(2.321697) can0 280#03b103b003ad03af 
(2.324647) can0 180#a0b5ffe80200     
(2.330118) can0 110#0220f12000202000 
(2.330349) can0 120#00361361154ef000 
(2.331471) can0 140#800320fce0000000 
(2.331701) can0 280#03b003b103b603ad 
(2.331944) can0 290#1680118018001280 
(2.334654) can0 180#a0bbffe80c00     
(2.340113) can0 110#0220fe2000202000 
(2.340342) can0 120#00361361154ef000 
(2.341472) can0 140#810320fcdf000000 
(2.341693) can0 280#03b103b303b003ae 
(2.341881) can0 383#2c000040ff       
(2.344652) can0 180#a0a1ffe81600     
(2.350682) can0 110#0220f62000202000 
(2.350923) can0 120#00361361154ef000 
(2.351448) can0 140#820320fcde000000 
(2.351682) can0 280#03b203b303b103b4 
(2.354712) can0 180#a097ffe82000     
(2.360117) can0 110#0220f62000202000 
(2.360349) can0 120#00361361154ef000 
(2.360591) can0 1a0#000c306100000000 
(2.361450) can0 140#830320fcdd000000 
(2.361682) can0 280#03b403b003b103b3 
(2.364631) can0 180#a09dffe82a00     
(2.370151) can0 110#0221012000202000 
(2.370383) can0 120#00361361154ef000 
(2.370626) can0 301#0000190000510300 
(2.371451) can0 140#800320fce0000000 
(2.371682) can0 280#03af03b103b303b3 
(2.374641) can0 180#a083ffe83400     
(2.380121) can0 110#0220f52000202000 
(2.380352) can0 120#00361361154ef000 
(2.381457) can0 140#810320fcdf000000 
(2.381683) can0 280#03b103b103b003b2 
(2.384605) can0 380#e0ba5e00c3fb0000 
(2.384827) can0 180#a089ffe83e00     
(2.385095) can0 381#097f00a0026f0004 
(2.390089) can0 110#0220f52000202000 
(2.390329) can0 410#000dee3d0f3e0b00 
(2.390560) can0 120#00361361154ef000 
(2.391450) can0 140#820320fcde000000 
(2.391682) can0 280#03b403b503af03b3 
(2.394635) can0 180#a0ffffe84800     
(2.400126) can0 110#0221022000202000 
(2.400367) can0 300#0003009000464501 
(2.400599) can0 120#00361361154ef000 
(2.401457) can0 140#830320fcdd000000 
(2.401694) can0 280#03b603b403b003b4 
(2.404652) can0 180#a0e5ffe85200     
(2.410063) can0 110#0220f72000202000 
(2.410297) can0 120#00360361154ef000 
(2.410539) can0 1a0#000c306100000000 
(2.411458) can0 140#800320fce0000000 
(2.411692) can0 280#03b403b003b203af 
(2.414635) can0 180#a0ebffe85c00     
(2.420059) can0 110#0220f72000202000 
(2.420729) can0 120#00360361154ef000 
(2.421448) can0 140#810320fcdf000000 
(2.421679) can0 280#03b403b403b403b2 
(2.424631) can0 180#a0d1ffe86600     
(2.430068) can0 110#0221052000202000 
(2.430286) can0 120#00360361154ef000 
(2.431470) can0 140#820320fcde000000 
(2.431697) can0 280#03b403b403ac03b1 
(2.431936) can0 290#1680120018001280 
(2.434659) can0 180#a0c7ffe87000     
(2.440096) can0 110#0220fb2000202000 
(2.440332) can0 120#00360361154ef000 
(2.441481) can0 140#830320fcdd000000 
(2.441700) can0 280#03b603b603af03b2 
(2.441886) can0 383#2c000040ff       
(2.444662) can0 180#a0cdffe87a00     
(2.450678) can0 110#02210d2000202000 
(2.450913) can0 120#00360361154ef000 
(2.451457) can0 140#800320fce0000000 
(2.451689) can0 280#03b403b403ae03b2 
(2.454721) can0 180#a033ffe88400     
(2.460115) can0 110#02210d2000202000 
(2.460348) can0 120#00360361154ef000 
(2.460593) can0 1a0#000c306100000000 
(2.461461) can0 140#810320fcdf000000 
(2.461690) can0 280#03b203b503b103ad 
(2.464660) can0 180#a039ffe88e00     
(2.470151) can0 110#0221092000202000 
(2.470384) can0 120#00360361154ef000 
(2.470627) can0 301#0000190000510300 
(2.471450) can0 140#820320fcde000000 
(2.471689) can0 280#03b303b403af03b4 
(2.474638) can0 180#a02fffe89800     
(2.480129) can0 110#02211c2000202000 
(2.480365) can0 120#00360361154ef000 
(2.481472) can0 140#830320fcdd000000 
(2.481694) can0 280#03b503b703ae03b3 
(2.484616) can0 380#30ba5e00c3fb0000 
(2.484830) can0 180#a015ffe8a200     
(2.485104) can0 381#097f00a002740004 
(2.490121) can0 110#02211c2000202000 
(2.490358) can0 410#000dfd3d8d3e0b00 
(2.490595) can0 120#00360361154ef000 
(2.491460) can0 140#800320fce0000000 
(2.491688) can0 280#03b703b503ae03b3 
(2.494643) can0 180#a01bffe8ac00     
(2.500142) can0 110#0221122000202000 
(2.500380) can0 300#0003009000464701 
(2.500615) can0 120#00360361154ef000 
(2.501458) can0 140#810320fcdf000000 
(2.501688) can0 280#03b303b303b303b2 
(2.504659) can0 180#a001ffe8b600     
(2.510087) can0 110#0221222000202000 
(2.510317) can0 120#00360361154ef000 
(2.510562) can0 1a0#000c306100000000 
(2.511464) can0 140#820320fcde000000 
(2.511699) can0 280#03b403b503b003b4 
(2.514642) can0 180#a077ffe8c000     
(2.520764) can0 110#02211d2000202000 
(2.520998) can0 120#00360361154ef000 
(2.521452) can0 140#830320fcdd000000 
(2.521684) can0 280#03b703b803af03b3 
(2.524643) can0 180#a07dffe8ca00     
(2.530046) can0 110#02211d2000202000 
(2.530278) can0 120#0035f361154ef000 
(2.531468) can0 140#800320fce0000000 
(2.531692) can0 280#03b703b803b003b3 
(2.531933) can0 290#1700120018801280 
(2.534657) can0 180#a063ffe8d400     
(2.540086) can0 110#0221312000202000 
(2.540316) can0 120#0035f361154ef000 
(2.541474) can0 140#810320fcdf000000 
(2.541695) can0 280#03b503b603b403b2 
(2.541884) can0 383#2c000040ff       
(2.544664) can0 180#a069ffe8de00     
(2.550047) can0 110#0221282000202000 
(2.550279) can0 120#00360361154ef000 
(2.551477) can0 140#820320fcde000000 
(2.551709) can0 280#03b503b403b203af 
(2.554722) can0 180#a05fffe8e800     
(2.560082) can0 110#0221282000202000 
(2.560318) can0 120#00360361154ef000 
(2.560560) can0 1a0#000c306100000000 
(2.561459) can0 140#830320fcdd000000 
(2.561694) can0 280#03b703b603b203b2 
(2.564644) can0 180#a045ffe8f200     
(2.570110) can0 110#0221352000202000 
(2.570343) can0 120#00360361154ef000 
(2.570586) can0 301#0000190000510300 
(2.571461) can0 140#800320fce0000000 
(2.571693) can0 280#03b603b703b303b3 
(2.574647) can0 180#a04bffe8fc00     
(2.580129) can0 110#02212d2000212000 
(2.580361) can0 120#00360361154ef000 
(2.581473) can0 140#810320fcdf000000 
(2.581694) can0 280#03b503b703b903b2 
(2.584662) can0 380#60ba5e00c3fb0000 
(2.584875) can0 180#a0b1ffe80600     
(2.585139) can0 381#097f00a002740004 
(2.585352) can0 440#1c0b06000000     
(2.585575) can0 4a0#00008fef0000     
(2.585795) can0 531#030028010100     
(2.590692) can0 110#0221382000212000 
(2.590943) can0 410#000e093d8d3e0b00 
(2.591162) can0 120#00360361154ef000 
(2.591463) can0 140#820320fcde000000 
(2.591699) can0 280#03b403b903b203b4 
(2.594657) can0 180#a0a7ffe81000     
(2.600135) can0 110#0221382000212000 
(2.600379) can0 300#0003009000464901 
(2.600614) can0 120#00360361154ef000 
(2.601467) can0 140#830320fcdd000000 
(2.601695) can0 280#03b803b503b603b7 
(2.604727) can0 180#a0adffe81a00     
(2.610131) can0 110#0221292000212000 
(2.610366) can0 120#00360361154ef000 
(2.610610) can0 1a0#000c306100000000 
(2.611461) can0 140#800320fce0000000 
(2.611693) can0 280#03b803b703b603b7 
(2.614647) can0 180#a093ffe82400     
(2.620407) can0 110#0221362000212000 
(2.620636) can0 120#00360361154ef000 
(2.621471) can0 140#810320fcdf000000 
(2.621699) can0 280#03b603b703b703b2 
(2.624644) can0 180#a099ffe82e00     
(2.630127) can0 110#0221362000212000 
(2.630359) can0 120#00360361154ef000 
(2.631465) can0 140#820320fcde000000 
(2.631686) can0 280#03b803b703b803b5 
(2.631927) can0 290#1700120018801300 
(2.634674) can0 180#a08fffe83800     
(2.640170) can0 110#02212b2000212000 
(2.640400) can0 120#00360361154ef000 
(2.641472) can0 140#830320fcdd000000 
(2.641689) can0 280#03b603b703b703b5 
(2.641876) can0 383#2c000040ff       
(2.644673) can0 180#a0f5ffe84200     
(2.650108) can0 110#0221332000212000 
(2.650336) can0 120#00360361154ef000 
(2.651476) can0 140#800320fce0000000 
(2.651697) can0 280#03ba03b703b603b6 
(2.654727) can0 180#a0fbffe84c00     
(2.660063) can0 110#0221332000212000 
(2.660296) can0 120#00360361154ef000 
(2.660540) can0 1a0#000c306100000000 
(2.661467) can0 140#810320fcdf000000 
(2.661696) can0 280#03ba03b903b503b3 
(2.664644) can0 180#a0e1ffe85600     
(2.670090) can0 110#0221222000212000 
(2.670325) can0 120#00360361154ef000 
(2.670570) can0 301#0000190000510300 
(2.671463) can0 140#820320fcde000000 
(2.671693) can0 280#03bb03b803b903b4 
(2.674645) can0 180#a0d7ffe86000     
(2.680096) can0 110#02212d2000212000 
(2.680328) can0 120#0035f361154ef000 
(2.680569) can0 510#047e362700000000 
(2.681460) can0 140#830320fcdd000000 
(2.681689) can0 280#03b803b603b503b5 
(2.684616) can0 380#b0ba5e00c3fb0000 
(2.684828) can0 180#a0ddffe86a00     
(2.685108) can0 381#097f00a002740004 
(2.690714) can0 110#0221242000212000 
(2.690950) can0 410#000e1c3d8d3e8900 
(2.691180) can0 120#0035f361154ef000 
(2.691449) can0 140#800320fce0000000 
(2.691684) can0 280#03b703b603b503b7 
(2.694646) can0 180#a0c3ffe87400     
(2.700134) can0 110#0221241ffa211f00 
(2.700371) can0 300#0003009000464c01 
(2.700609) can0 120#0035f35c154ef000 
(2.701445) can0 140#810320fcdf000000 
(2.701678) can0 280#03b903b803b603b3 
(2.704659) can0 180#a0c9ffe87e00     
(2.710180) can0 110#0221311f00211f00 
(2.710414) can0 120#0036035c154ef000 
(2.710657) can0 1a0#000c306100000000 
(2.711438) can0 140#820320fcde000000 
(2.711669) can0 280#03b903b903b903b6 
(2.714670) can0 180#a03fffe88800     
(2.720158) can0 110#0221281f00211f00 
(2.720394) can0 120#0036035c154ef000 
(2.721460) can0 140#830320fcdd000000 
(2.721678) can0 280#03b803b803b603b3 
(2.724645) can0 180#a025ffe89200     
(2.730134) can0 110#0221281f00211f00 
(2.730369) can0 120#0036035c154ef000 
(2.731462) can0 140#800320fce0000000 
(2.731684) can0 280#03bb03b903b403b4 
(2.731925) can0 290#1780128019001300 
(2.734663) can0 180#a02bffe89c00     
(2.740167) can0 110#0221351f00211f00 
(2.740400) can0 120#0036035c154ef000 
(2.741461) can0 140#810320fcdf000000 
(2.741684) can0 280#03b603b703b403b4 
(2.741872) can0 383#2c000040ff       
(2.744668) can0 180#a011ffe8a600     
(2.750125) can0 110#02212e1f00211f00 
(2.750356) can0 120#0036035c154ef000 
(2.751460) can0 140#820320fcde000000 
(2.751685) can0 280#03ba03b703b903b5 
(2.754731) can0 180#a007ffe8b000     
(2.760764) can0 110#0221421f00211f00 
(2.761000) can0 120#0036035c154ef000 
(2.761242) can0 1a0#000c306100000000 
(2.761482) can0 140#830320fcdd000000 
(2.761722) can0 280#03b803b903b603b3 
(2.764648) can0 180#a00dffe8ba00     
(2.770114) can0 110#0221421f00211f00 
(2.770348) can0 120#0036035c154ef000 
(2.770591) can0 301#0000190000510300 
(2.771462) can0 140#800320fce0000000 
(2.771693) can0 280#03bb03b903b503b3 
(2.774647) can0 180#a073ffe8c400     
(2.780096) can0 110#0221391f00211f00 
(2.780327) can0 120#0036035c154ef000 
(2.781453) can0 140#810320fcdf000000 
(2.781675) can0 280#03b803ba03b803b6 
(2.784613) can0 380#e0ba5e00c3fb0000 
(2.784828) can0 180#a079ffe8ce00     
(2.785106) can0 381#097f00a002740004 
(2.790066) can0 110#02214a1f00211f00 
(2.790306) can0 410#000e1c3e0b3e8900 
(2.790541) can0 120#0036035c154ef000 
(2.791455) can0 140#820320fcde000000 
(2.791683) can0 280#03bb03b703ba03b6 
(2.794660) can0 180#a06fffe8d800     
(2.800062) can0 110#02214a1f00211f00 
(2.800305) can0 300#0003009000464e01 
(2.800540) can0 120#0036035c154ef000 
(2.801456) can0 140#830320fcdd000000 
(2.801682) can0 280#03b903bb03ba03b2 
(2.804657) can0 180#a055ffe8e200     
(2.810120) can0 110#0221421f00201f00 
(2.810352) can0 120#0036035c154ef000 
(2.810594) can0 1a0#000c306100000000 
(2.811462) can0 140#800320fce0000000 
(2.811692) can0 280#03b903b603b703b3 
(2.814646) can0 180#a05bffe8ec00     
(2.820108) can0 110#0221551f00201f00 
(2.820342) can0 120#0035f35c154ef000 
(2.821467) can0 140#810320fcdf000000 
(2.821688) can0 280#03b903b903b803b8 
(2.824648) can0 180#a041ffe8f600     
(2.830714) can0 110#0221471f001f1f00 
(2.830961) can0 120#0035f35b154ef000 
(2.831451) can0 140#820320fcde000000 
(2.831687) can0 280#03ba03ba03c003b8 
(2.831928) can0 290#1780128019001380 
(2.834676) can0 180#a0b7ffe80000     
(2.840163) can0 110#0221471f001f1f00 
(2.840399) can0 120#0035f35c154ef000 
(2.841460) can0 140#830320fcdd000000 
(2.841687) can0 280#03bb03be03b803b8 
(2.841872) can0 383#2c000040ff       
(2.844671) can0 180#a0bdffe80a00     
(2.850148) can0 110#0221561f001f1f00 
(2.850382) can0 120#0035e35b154ef000 
(2.851457) can0 140#800320fce0000000 
(2.851688) can0 280#03bc03b903bb03b8 
(2.854729) can0 180#a0a3ffe81400     
(2.860259) can0 110#02214f1f001f1f00 
(2.860490) can0 120#0035d35c154ef000 
(2.860733) can0 1a0#000c306100000000 
(2.861448) can0 140#810320fcdf000000 
(2.861680) can0 280#03bb03bb03b803bc 
(2.864661) can0 180#a0a9ffe81e00     
(2.870156) can0 110#02214f1f001f1f00 
(2.870387) can0 120#0035d35c154ef000 
(2.870635) can0 301#0000190000510300 
(2.871451) can0 140#820320fcde000000 
(2.871683) can0 280#03ba03ba03bb03b8 
(2.874653) can0 180#a09fffe82800     
(2.880172) can0 110#02215e1f001f1f00 
(2.880405) can0 120#0035d35b154ef000 
(2.881477) can0 140#830320fcdd000000 
(2.881702) can0 280#03bd03bb03c003bb 
(2.884623) can0 380#30ba5e00c3fb0000 
(2.884834) can0 180#a085ffe83200     
(2.885111) can0 381#097f00a002740004 
(2.890136) can0 110#02214e1f001f1f00 
(2.890382) can0 410#000e183e0b3f0700 
(2.890613) can0 120#0035c35b154ef000 
(2.891457) can0 140#800320fce0000000 
(2.891687) can0 280#03bc03ba03bb03ba 
(2.894655) can0 180#a08bffe83c00     
(2.900114) can0 110#02214e1f001f1f00 
(2.900354) can0 300#0003009000465001 
(2.900585) can0 120#0035c35b154ef000 
(2.901462) can0 140#810320fcdf000000 
(2.901694) can0 280#03be03bd03bb03bd 
(2.904663) can0 180#a0f1ffe84600     
(2.910094) can0 110#02215a1f001f1f00 
(2.910323) can0 120#0035c35b154ef000 
(2.910566) can0 1a0#000c306100000000 
(2.911455) can0 140#820320fcde000000 
(2.911686) can0 280#03be03bc03bd03b9 
(2.914654) can0 180#a0e7ffe85000     
(2.920115) can0 110#02214f1f001f1f00 
(2.920347) can0 120#0035b35b154ef000 
(2.921469) can0 140#830320fcdd000000 
(2.921694) can0 280#03be03bd03be03bc 
(2.924648) can0 180#a0edffe85a00     
(2.930537) can0 110#02215c1f001f1f00 
(2.930772) can0 120#0035b35b154ef000 
(2.931451) can0 140#800320fce0000000 
(2.931686) can0 280#03bf03bc03ba03bd 
(2.931929) can0 290#1780130019001380 
(2.934667) can0 180#a0d3ffe86400     
(2.940111) can0 110#02215c1f001f1f00 
(2.940342) can0 120#0035b35b154ef000 
(2.941460) can0 140#810320fcdf000000 
(2.941687) can0 280#03be03bd03b803b9 
(2.941877) can0 383#2c000040ff       
(2.944673) can0 180#a0d9ffe86e00     
(2.950188) can0 110#0221501f001f1f00 
(2.950421) can0 120#0035a35b154ef000 
(2.951445) can0 140#820320fcde000000 
(2.951677) can0 280#03be03be03bd03bd 
(2.954731) can0 180#a0cfffe87800     
(2.960172) can0 110#02215f1f001f1f00 
(2.960403) can0 120#0035a35b154ef000 
(2.960646) can0 1a0#000c306100000000 
(2.961461) can0 140#830320fcdd000000 
(2.961696) can0 280#03bc03be03be03ba 
(2.964652) can0 180#a035ffe88200     
(2.970155) can0 110#02215f1f001f1f00 
(2.970390) can0 120#0035a35b154ef000 
(2.970635) can0 301#0000190000510300 
(2.971466) can0 140#800320fce0000000 
(2.971699) can0 280#03be03bf03bd03b8 
(2.974651) can0 180#a03bffe88c00     
(2.980182) can0 110#0221511f001f1f00 
(2.980415) can0 120#0035a35b154ef000 
(2.981458) can0 140#810320fcdf000000 
(2.981687) can0 280#03c203bd03b903b6 
(2.984626) can0 380#60ba5e00c3fb0000 
(2.984840) can0 180#a021ffe89600     
(2.985114) can0 381#097f00a0026c0004 
(2.990162) can0 110#0221611f001f1f00 
(2.990401) can0 410#000e273e893f0700 
(2.990633) can0 120#0035935b154ef000 
(2.991461) can0 140#820320fcde000000 
(2.991693) can0 280#03bd03bd03b803c0 
(2.994652) can0 180#a017ffe8a000     
(3.000836) can0 110#0221581f00201f00 
(3.001076) can0 300#0003009000465201 
(3.001345) can0 120#0035935b154ef000 
(3.001547) can0 140#830320fcdd000000 
(3.001783) can0 280#03bd03bd03be03ba 
(3.004670) can0 180#a01dffe8aa00     
(3.010126) can0 110#0221581f00201f00 
(3.010353) can0 120#0035935b154ef000 
(3.010598) can0 1a0#000c306100000000 
(3.011458) can0 140#800320fce0000000 
(3.011692) can0 280#03bd03be03bc03ba 
(3.014656) can0 180#a003ffe8b400     
(3.020169) can0 110#02216c1f00201f00 
(3.020397) can0 120#0035935b154ef000 
(3.021465) can0 140#810320fcdf000000 
(3.021689) can0 280#03c003bf03b903bd 
(3.024652) can0 180#a009ffe8be00     
(3.030080) can0 110#0221661f00201f00 
(3.030308) can0 120#0035935b154ef000 
(3.031448) can0 140#820320fcde000000 
(3.031679) can0 280#03bf03c003be03be 
(3.031918) can0 290#1800130019801380 
(3.034672) can0 180#a07fffe8c800     
(3.040102) can0 110#0221661f00201f00 
(3.040331) can0 120#0035935b154ef000 
(3.041469) can0 140#830320fcdd000000 
(3.041695) can0 280#03bf03bc03bd03bb 
(3.041884) can0 383#2c000040ff       
(3.044688) can0 180#a065ffe8d200     
(3.050097) can0 110#02217c1f00201f00 
(3.050328) can0 120#0035935b154ef000 
(3.051459) can0 140#800320fce0000000 
(3.051679) can0 280#03be03be03bd03b9 
(3.054730) can0 180#a06bffe8dc00     
(3.060116) can0 110#02216f1f00201f00 
(3.060343) can0 120#0035935b154ef000 
(3.060588) can0 1a0#000c306100000000 
(3.061443) can0 140#810320fcdf000000 
(3.061678) can0 280#03bf03be03bb03ba 
(3.064650) can0 180#a051ffe8e600     
(3.070744) can0 110#0221801f00201f00 
(3.070982) can0 120#0035935b154ef000 
(3.071215) can0 301#0000190000510300 
(3.071458) can0 140#820320fcde000000 
(3.071697) can0 280#03c003be03bd03bc 
(3.074655) can0 180#a047ffe8f000     
(3.080177) can0 110#0221801f00201f00 
(3.080406) can0 120#0035935b154ef000 
(3.081451) can0 140#830320fcdd000000 
(3.081684) can0 280#03c003c003bc03ba 
(3.084625) can0 380#b0ba5e00c3fb0000 
(3.084837) can0 180#a04dffe8fa00     
(3.085117) can0 381#097f00a0026c0004 
(3.090199) can0 110#0221791f00201f00 
(3.090437) can0 410#000e2f3e893f0700 
(3.090672) can0 120#0035935b154ef000 
(3.091450) can0 140#800320fce0000000 
(3.091687) can0 280#03be03c203bf03bb 
(3.094651) can0 180#a0b3ffe80400     
(3.100168) can0 110#02218a1f00201f00 
(3.100412) can0 300#0003009000465401 
(3.100647) can0 120#0035a35b154ef000 
(3.101469) can0 140#810320fcdf000000 
(3.101707) can0 280#03be03bd03c003c1 
(3.104670) can0 180#a0b9ffe80e00     
(3.110165) can0 110#02218a1f00201f00 
(3.110397) can0 120#0035a35b154ef000 
(3.110640) can0 1a0#000c306100000000 
(3.111452) can0 140#820320fcde000000 
(3.111693) can0 280#03c103c003be03c1 
(3.114657) can0 180#a0afffe81800     
(3.120216) can0 110#0221801f00201f00 
(3.120450) can0 120#0035a35b154ef000 
(3.121468) can0 140#830320fcdd000000 
(3.121697) can0 280#03c003bf03bf03bb 
(3.124659) can0 180#a095ffe82200     
(3.130149) can0 110#02218f1f00201f00 
(3.130383) can0 120#0035a35b154ef000 
(3.131461) can0 140#800320fce0000000 
(3.131691) can0 280#03c203bf03c403bc 
(3.131933) can0 290#1800130019801400 
(3.134669) can0 180#a09bffe82c00     
(3.140801) can0 110#0221841f00201f00 
(3.141034) can0 120#0035a35b154ef000 
(3.141453) can0 140#810320fcdf000000 
(3.141696) can0 280#03be03bf03c003bf 
(3.141883) can0 383#2c000040ff       
(3.144686) can0 180#a081ffe83600     
(3.150108) can0 110#0221841f00201f00 
(3.150339) can0 120#0035a35b154ef000 
(3.151467) can0 140#820320fcde000000 
(3.151696) can0 280#03c103c003c003bf 
(3.154737) can0 180#a0f7ffe84000     
(3.160146) can0 110#0221921f00201f00 
(3.160379) can0 120#0035b35b154ef000 
(3.160624) can0 1a0#000c306100000000 
(3.161454) can0 140#830320fcdd000000 
(3.161690) can0 280#03c203c003c003bb 
(3.164653) can0 180#a0fdffe84a00     
(3.170116) can0 110#0221851f00201f00 
(3.170348) can0 120#0035b35b154ef000 
(3.170593) can0 301#0000190000510300 
(3.171447) can0 140#800320fce0000000 
(3.171684) can0 280#03c303c003bf03b8 
(3.174654) can0 180#a0e3ffe85400     
(3.180119) can0 110#0221851f00201f00 
(3.180351) can0 120#0035b35b154ef000 
(3.180595) can0 510#047e362700000000 
(3.181449) can0 140#810320fcdf000000 
(3.181682) can0 280#03c303c003bc03bc 
(3.184627) can0 380#e0ba5e00c3fb0000 
(3.184838) can0 180#a0e9ffe85e00     
(3.185116) can0 381#097f00a0026c0004 
(3.190129) can0 110#0221931f00201f00 
(3.190361) can0 410#000e3a3e893f8500 
(3.190595) can0 120#0035b35b154ef000 
(3.191445) can0 140#820320fcde000000 
(3.191680) can0 280#03c203c003bd03bb 
(3.194657) can0 180#a0dfffe86800     
(3.200192) can0 110#0221881f00201f00 
(3.200432) can0 300#0003009000465701 
(3.200667) can0 120#0035a35b154ef000 
(3.201434) can0 140#830320fcdd000000 
(3.201669) can0 280#03c303c303be03bd 
(3.204670) can0 180#a0c5ffe87200     
(3.210691) can0 110#0221931f00201f00 
(3.210919) can0 120#0035a35b154ef000 
(3.211162) can0 1a0#000c306100000000 
(3.211468) can0 140#800320fce0000000 
(3.211705) can0 280#03c003c203c003b5 
(3.214662) can0 180#a0dc00007c00     
(3.220173) can0 110#0221931f00201f00 
(3.220407) can0 120#0035a35b154ef000 
(3.221455) can0 140#810320fcdf000000 
(3.221696) can0 280#03c103c003c003bf 
(3.224655) can0 180#a02600008600     
(3.230210) can0 110#0221821f00201f00 
(3.230442) can0 120#0035b35b154ef000 
(3.231452) can0 140#820320fcde000000 
(3.231685) can0 280#03c403c003c003b8 
(3.231929) can0 290#188013801a001400 
(3.234673) can0 180#a03000009000     
(3.240194) can0 110#02218a1f00201f00 
(3.240426) can0 120#0035b35b154ef000 
(3.241454) can0 140#830320fcdd000000 
(3.241686) can0 280#03c103c103be03c2 
(3.241875) can0 383#2c000040ff       
(3.244679) can0 180#a03a00009a00     
(3.250175) can0 110#02218a1f00201f00 
(3.250399) can0 120#0035b35b154ef000 
(3.251459) can0 140#800320fce0000000 
(3.251686) can0 280#03c303c203c103ba 
(3.254741) can0 180#a0040000a400     
(3.260145) can0 110#02217f1f00201f00 
(3.260375) can0 120#0035b35b154ef000 
(3.260619) can0 1a0#000c306100000000 
(3.261452) can0 140#810320fcdf000000 
(3.261687) can0 280#03c103c203bf03b9 
(3.264656) can0 180#a00e0000ae00     
(3.270154) can0 110#02218e1f00201f00 
(3.270389) can0 120#0035b35b154ef000 
(3.270633) can0 301#0000190000510300 
(3.271479) can0 140#820320fcde000000 
(3.271690) can0 280#03c303c103bd03bd 
(3.274699) can0 180#a0180000b800     
(3.280674) can0 110#0221851f00201f00 
(3.280904) can0 120#0035b35b154ef000 
(3.281448) can0 140#830320fcdd000000 
(3.281682) can0 280#03c403c203c203bf 
(3.284622) can0 380#30ba5e00c3fb0000 
(3.284837) can0 180#a0620000c200     
(3.285116) can0 381#097f00a0026c0004 
(3.290094) can0 110#0221851f00201f00 
(3.290335) can0 410#000e3a3f073f8500 
(3.290569) can0 120#0035b35b154ef000 
(3.291445) can0 140#800320fce0000000 
(3.291682) can0 280#03c403c103c003bc 
(3.294653) can0 180#a06c0000cc00     
(3.300156) can0 110#02218d1f00201f00 
(3.300396) can0 300#0003009000465901 
(3.300630) can0 120#0035b35b154ef000 
(3.301446) can0 140#810320fcdf000000 
(3.301679) can0 280#03c303c403c103bb 
(3.304663) can0 180#a0760000d600     
(3.310129) can0 110#0221841f00201f00 
(3.310363) can0 120#0035b35b154ef000 
(3.310607) can0 1a0#000c306100000000 
(3.311441) can0 140#820320fcde000000 
(3.311674) can0 280#03c303c203c003be 
(3.311838) can0 295#0355fe47         
(3.314671) can0 180#a0400000e000     
(3.320190) can0 110#0221841f00201f00 
(3.320423) can0 120#0035b35b154ef000 
(3.321465) can0 140#830320fcdd000000 
(3.321691) can0 280#03c403c003c203c2 
(3.324653) can0 180#a04a0000ea00     
(3.330169) can0 110#0221931f00201f00 
(3.330401) can0 120#0035b35b154ef000 
(3.331444) can0 140#800320fce0000000 
(3.331678) can0 280#03c303c403c303c0 
(3.331920) can0 290#188013801a001480 
(3.334673) can0 180#a0540000f400     
(3.340190) can0 110#02218a1f00201f00 
(3.340420) can0 120#0035b35b154ef000 
(3.341449) can0 140#810320fcdf000000 
(3.341672) can0 280#03c403c503c403bf 
(3.341862) can0 383#2c000040ff       
(3.344677) can0 180#a05e0000fe00     
(3.350430) can0 110#02219d1f00201f00 
(3.350665) can0 120#0035a35b154ef000 
(3.351443) can0 140#820320fcde000000 
(3.351674) can0 280#03c303c303c403c3 
(3.354734) can0 180#a0a800000800     
(3.360184) can0 110#02219d1f00201f00 
(3.360419) can0 120#0035a35b154ef000 
(3.360662) can0 1a0#000c306100000000 
(3.361448) can0 140#830320fcdd000000 
(3.361684) can0 280#03c403c403c403c9 
(3.364655) can0 180#a0b200001200     
(3.370211) can0 110#0221981f00201f00 
(3.370446) can0 120#0035a35b154ef000 
(3.370689) can0 301#0000190000510300 
(3.371447) can0 140#800320fce0000000 
(3.371682) can0 280#03c403c303c503c4 
(3.374657) can0 180#a0bc00001c00     
(3.380172) can0 110#0221aa1f00201f00 
(3.380406) can0 120#0035b35a154ef000 
(3.381443) can0 140#810320fcdf000000 
(3.381668) can0 280#03c603c403c703c4 
(3.384717) can0 380#60ba5e00c3fb0000 
(3.384933) can0 180#a08600002600     
(3.385190) can0 381#097f00a0026c0004 
(3.390803) can0 110#0221a11f00201f00 
(3.391061) can0 410#000e3e3f07400300 
(3.391284) can0 120#0035a35a154ef000 
(3.391530) can0 140#820320fcde000000 
(3.391762) can0 280#03c503c403c303c5 
(3.394656) can0 180#a09000003000     
(3.400130) can0 110#0221a11f00201f00 
(3.400377) can0 300#0003009000465b01 
(3.400610) can0 120#0035a35a154ef000 
(3.401442) can0 140#830320fcdd000000 
(3.401676) can0 280#03c803c703c303c5 
(3.404669) can0 180#a09a00003a00     
(3.410132) can0 110#0221b71f00201f00 
(3.410359) can0 120#0035a35a154ef000 
(3.410602) can0 1a0#000c306100000000 
(3.411440) can0 140#800320fce0000000 
(3.411670) can0 280#03c703c403c403c4 
(3.414654) can0 180#a0e400004400     
(3.420131) can0 110#0221b41f00201f00 
(3.420367) can0 120#0035a35a154ef000 
(3.421438) can0 140#810320fcdf000000 
(3.421671) can0 280#03c703c503c503c2 
(3.424652) can0 180#a0ee00004e00     
(3.430138) can0 110#0221b41f00201f00 
(3.430374) can0 120#0035a35a154ef000 
(3.431454) can0 140#820320fcde000000 
(3.431689) can0 280#03c703c503c203c6 
(3.431928) can0 290#188014001a001480 
(3.434673) can0 180#a0f800005800     
(3.440235) can0 110#0221c81f00201f00 
(3.440465) can0 120#0035935a154ef000 
(3.441438) can0 140#830320fcdd000000 
(3.441669) can0 280#03c503c603c203c6 
(3.441863) can0 383#2c000040ff       
(3.444677) can0 180#a0c200006200     
(3.450179) can0 110#0221be1f00201f00 
(3.450408) can0 120#0035935a154ef000 
(3.451453) can0 140#800320fce0000000 
(3.451674) can0 280#03c903c703c503ca 
(3.454734) can0 180#a0cc00006c00     
(3.460750) can0 110#0221cb1f00201f00 
(3.460981) can0 120#0035935a154ef000 
(3.461225) can0 1a0#000c306100000000 
(3.461472) can0 140#810320fcdf000000 
(3.461703) can0 280#03c703c603c703c6 
(3.464654) can0 180#a0d600007600     
(3.470182) can0 110#0221cb1f00201f00 
(3.470413) can0 120#0035935a154ef000 
(3.470657) can0 301#0000190000510300 
(3.471445) can0 140#820320fcde000000 
(3.471677) can0 280#03c703c603c503cb 
(3.474660) can0 180#a02000008000     
(3.480240) can0 110#0221c31f00201f00 
(3.480473) can0 120#0035935a154ef000 
(3.481479) can0 140#830320fcdd000000 
(3.481686) can0 280#03c703c803c303c2 
(3.484626) can0 380#b0ba5e00c3fb0000 
(3.484845) can0 180#a02a00008a00     
(3.485121) can0 381#097f00a002740004 
(3.490191) can0 110#0221d11f00201f00 
(3.490436) can0 410#000e493f85400300 
(3.490668) can0 120#0035935a154ef000 
(3.491443) can0 140#800320fce0000000 
(3.491675) can0 280#03c803c703c203cb 
(3.494657) can0 180#a03400009400     
(3.500171) can0 110#0221d11f00201f00 
(3.500409) can0 300#0003009000465e01 
(3.500640) can0 120#0035935a154ef000 
(3.501449) can0 140#810320fcdf000000 
(3.501683) can0 280#03c803c603c703c5 
(3.504673) can0 180#a03e00009e00     
(3.510180) can0 110#0221c31f00201f00 
(3.510410) can0 120#0035935a154ef000 
(3.510654) can0 1a0#000c306100000000 
(3.511443) can0 140#820320fcde000000 
(3.511674) can0 280#03c703c803c303c3 
(3.514657) can0 180#a0080000a800     
(3.520154) can0 110#0221d21f00201f00 
(3.520385) can0 120#0035935a154ef000 
(3.521450) can0 140#830320fcdd000000 
(3.521676) can0 280#03c903ca03c103c5 
(3.524662) can0 180#a0120000b200     
(3.530763) can0 110#0221c31f00201f00 
(3.530993) can0 120#0035935a154ef000 
(3.531545) can0 140#800320fce0000000 
(3.531729) can0 280#03c603ca03c303c7 
(3.531926) can0 290#190014001a801480 
(3.534671) can0 180#a01c0000bc00     
(3.540113) can0 110#0221c31f00201f00 
(3.540345) can0 120#0035935a154ef000 
(3.541451) can0 140#810320fcdf000000 
(3.541677) can0 280#03c903c803c603c6 
(3.541868) can0 383#2c000040ff       
(3.544682) can0 180#a0660000c600     
(3.550168) can0 110#0221cd1f00201f00 
(3.550402) can0 120#0035835a154ef000 
(3.551449) can0 140#820320fcde000000 
(3.551678) can0 280#03c903c803c703c5 
(3.554741) can0 180#a0700000d000     
(3.560167) can0 110#0221bb1f00201f00 
(3.560401) can0 120#0035835a154ef000 
(3.560645) can0 1a0#000c306100000000 
(3.561447) can0 140#830320fcdd000000 
(3.561675) can0 280#03cb03c903c503c6 
(3.564654) can0 180#a07a0000da00     
(3.570200) can0 110#0221bb1f00201f00 
(3.570432) can0 120#0035935a154ef000 
(3.570676) can0 301#0000190000510300 
(3.571442) can0 140#800320fce0000000 
(3.571675) can0 280#03c903ca03c503c8 
(3.574657) can0 180#a0440000e400     
(3.580199) can0 110#0221c81f00201f00 
(3.580432) can0 120#0035835a154ef000 
(3.581454) can0 140#810320fcdf000000 
(3.581680) can0 280#03c803ca03cb03c5 
(3.584673) can0 380#e0ba5e00c3fb0000 
(3.584888) can0 180#a04e0000ee00     
(3.585144) can0 381#097f00a002740004 
(3.585366) can0 440#1c0b06000000     
(3.585588) can0 4a0#00008fef0000     
(3.585808) can0 531#030028010100     
(3.590206) can0 110#0221bc1f00201f00 
(3.590446) can0 410#000e513f85400300 
(3.590680) can0 120#0035835a154ef000 
(3.591447) can0 140#820320fcde000000 
(3.591675) can0 280#03c703cc03c403c6 
(3.594659) can0 180#a0580000f800     
(3.600499) can0 110#0221cb1f00201f00 
(3.600740) can0 300#0003009000466001 
(3.600979) can0 120#0035835a154ef000 
(3.601457) can0 140#830320fcdd000000 
(3.601687) can0 280#03ca03c603c603c7 
(3.604676) can0 180#a0a200000200     
(3.610193) can0 110#0221cb1f00201f00 
(3.610426) can0 120#0035835a154ef000 
(3.610669) can0 1a0#000c306100000000 
(3.611441) can0 140#800320fce0000000 
(3.611677) can0 280#03cc03c903c403c9 
(3.614658) can0 180#a0ac00000c00     
(3.620224) can0 110#0221b91f00201f00 
(3.620459) can0 120#0035835a154ef000 
(3.621448) can0 140#810320fcdf000000 
(3.621674) can0 280#03c903ca03c703c5 
(3.624659) can0 180#a0b600001600     
(3.630182) can0 110#0221c61f00201f00 
(3.630417) can0 120#0035835a154ef000 
(3.631450) can0 140#820320fcde000000 
(3.631675) can0 280#03ca03cb03cb03c6 
(3.631916) can0 290#190014001a801500 
(3.634677) can0 180#a08000002000     
(3.640835) can0 110#0221bf1f00201f00 
(3.641068) can0 120#0035835a154ef000 
(3.641435) can0 140#830320fcdd000000 
(3.641672) can0 280#03ca03c903c803c7 
(3.641861) can0 383#2c000040ff       
(3.644686) can0 180#a08a00002a00     
(3.650138) can0 110#0221bf1f00201f00 
(3.650371) can0 120#0035835a154ef000 
(3.651463) can0 140#800320fce0000000 
(3.651682) can0 280#03ca03c903c603c8 
(3.654742) can0 180#a09400003400     
(3.660178) can0 110#0221d51f00201f00 
(3.660410) can0 120#0035835a154ef000 
(3.660654) can0 1a0#000c306100000000 
(3.661440) can0 140#810320fcdf000000 
(3.661673) can0 280#03cc03c803c403c2 
(3.664661) can0 180#a09e00003e00     
(3.670153) can0 110#0221ce1f00201f00 
(3.670380) can0 120#0035835a154ef000 
(3.670623) can0 301#0000190000510300 
(3.671445) can0 140#820320fcde000000 
(3.671677) can0 280#03cc03cb03ca03c5 
(3.674670) can0 180#a0e800004800     
(3.680167) can0 110#0221ce1f00201f00 
(3.680398) can0 120#0035835a154ef000 
(3.680638) can0 510#047e362700000000 
(3.681434) can0 140#830320fcdd000000 
(3.681669) can0 280#03cb03ca03c603c5 
(3.684638) can0 380#30ba5e00c3fb0000 
(3.684855) can0 180#a0f200005200     
(3.685129) can0 381#097f00a002740004 
(3.690225) can0 110#0221e11f00201f00 
(3.690466) can0 410#000e5c3f85408100 
(3.690696) can0 120#0035835a154ef000 
(3.691442) can0 140#800320fce0000000 
(3.691673) can0 280#03c903cb03c503c8 
(3.694671) can0 180#a0fc00005c00     
(3.700205) can0 110#0221da1f00201f00 
(3.700443) can0 300#0003009000466201 
(3.700676) can0 120#0035835a154ef000 
(3.701442) can0 140#810320fcdf000000 
(3.701677) can0 280#03c903ca03c703c7 
(3.704682) can0 180#a0c600006600     
(3.710780) can0 110#0221eb1f00201f00 
(3.711010) can0 120#0035835a154ef000 
(3.711253) can0 1a0#000c306100000000 
(3.711498) can0 140#820320fcde000000 
(3.711734) can0 280#03ca03cb03c903c4 
(3.714668) can0 180#a0d000007000     
(3.720226) can0 110#0221eb1f00201f00 
(3.720458) can0 120#0035835a154ef000 
(3.721437) can0 140#830320fcdd000000 
(3.721663) can0 280#03cc03ca03c703c4 
(3.724667) can0 180#a0da00007a00     
(3.730247) can0 110#0221df1f00201f00 
(3.730478) can0 120#0035835a154ef000 
(3.731446) can0 140#800320fce0000000 
(3.731667) can0 280#03c903cb03c603c7 
(3.731915) can0 290#198014801b001500 
(3.734683) can0 180#a02400008400     
(3.740224) can0 110#0221f11f00201f00 
(3.740456) can0 120#00358359154ef000 
(3.741444) can0 140#810320fcdf000000 
(3.741664) can0 280#03cd03cb03c703c6 
(3.741853) can0 383#2c000040ff       
(3.744686) can0 180#a02e00008e00     
(3.750170) can0 110#0221f11f00201f00 
(3.750404) can0 120#00358359154ef000 
(3.751450) can0 140#820320fcde000000 
(3.751670) can0 280#03c603cb03cc03c7 
(3.754747) can0 180#a03800009800     
(3.760190) can0 110#0221e51f00201f00 
(3.760424) can0 120#0035835a154ef000 
(3.760667) can0 1a0#000c306100000000 
(3.761438) can0 140#830320fcdd000000 
(3.761672) can0 280#03cb03cc03c903c7 
(3.764668) can0 180#a0020000a200     
(3.770156) can0 110#0221f11f00201f00 
(3.770388) can0 120#0035835a154ef000 
(3.770632) can0 301#0000190000510300 
(3.771443) can0 140#800320fce0000000 
(3.771678) can0 280#03cc03c803c703c8 
(3.774671) can0 180#a00c0000ac00     
(3.780619) can0 110#0221de1f00201f00 
(3.780853) can0 120#0035835a154ef000 
(3.781440) can0 140#810320fcdf000000 
(3.781674) can0 280#03cc03cc03c703c9 
(3.784644) can0 380#60ba5e00c3fb0000 
(3.784855) can0 180#a0160000b600     
(3.785130) can0 381#097f00a002740004 
(3.790144) can0 110#0221de1f00201f00 
(3.790381) can0 410#000e5c4003408100 
(3.790615) can0 120#0035835a154ef000 
(3.791437) can0 140#820320fcde000000 
(3.791670) can0 280#03cb03cb03cb03c8 
(3.794673) can0 180#a0600000c000     
(3.800201) can0 110#0221e91f00201f00 
(3.800438) can0 300#0003009000466401 
(3.800673) can0 120#0035835a154ef000 
(3.801452) can0 140#830320fcdd000000 
(3.801682) can0 280#03ca03cd03c703c4 
(3.804686) can0 180#a06a0000ca00     
(3.810174) can0 110#0221dc1f00201f00 
(3.810406) can0 120#0035835a154ef000 
(3.810651) can0 1a0#000c306100000000 
(3.811445) can0 140#800320fce0000000 
(3.811677) can0 280#03cb03cb03ca03c7 
(3.814670) can0 180#a0740000d400     
(3.820787) can0 110#0221e71f00201f00 
(3.821017) can0 120#0035835a154ef000 
(3.821442) can0 140#810320fcdf000000 
(3.821680) can0 280#03cc03c903cd03cb 
(3.824670) can0 180#a07e0000de00     
(3.830211) can0 110#0221e71f00201f00 
(3.830440) can0 120#0035835a154ef000 
(3.831448) can0 140#820320fcde000000 
(3.831671) can0 280#03cd03cb03cc03c8 
(3.831911) can0 290#198014801b001580 
(3.834692) can0 180#a0500018e800     
(3.840280) can0 110#0221d81f00201f00 
(3.840511) can0 120#0035835a154ef000 
(3.841442) can0 140#830320fcdd000000 
(3.841670) can0 280#03cd03d003d003c9 
(3.841858) can0 383#2c000040ff       
(3.844685) can0 180#a04a0018f200     
(3.850214) can0 110#0221e01f00201f00 
(3.850452) can0 120#0035835a154ef000 
(3.851446) can0 140#800320fce0000000 
(3.851679) can0 280#03cc03cd03cc03cc 
(3.854760) can0 180#a0440018fc00     
(3.860220) can0 110#0221e01f00201f00 
(3.860448) can0 120#0035835a154ef000 
(3.860692) can0 1a0#000c306100000000 
(3.861449) can0 140#810320fcdf000000 
(3.861684) can0 280#03cc03cb03cc03cd 
(3.864670) can0 180#a0be00180600     
(3.870252) can0 110#0221d11f00201f00 
(3.870488) can0 120#0035835a154ef000 
(3.870727) can0 301#0000190000510300 
(3.871444) can0 140#820320fcde000000 
(3.871676) can0 280#03cc03cb03cd03cc 
(3.874673) can0 180#a0a800181000     
(3.880222) can0 110#0221dd1f00201f00 
(3.880455) can0 120#0035835a154ef000 
(3.881446) can0 140#830320fcdd000000 
(3.881670) can0 280#03ce03ce03cc03cd 
(3.884727) can0 380#b0ba5e00c3fb0000 
(3.884943) can0 180#a0a200181a00     
(3.885201) can0 381#097f00a002740004 
(3.890853) can0 110#0221d21f00201f00 
(3.891093) can0 410#000e5c400340ff00 
(3.891353) can0 120#0035835a154ef000 
(3.891572) can0 140#800320fce0000000 
(3.891807) can0 280#03cf03cd03cb03cc 
(3.894673) can0 180#a09c00182400     
(3.900165) can0 110#0221d21f00201f00 
(3.900400) can0 300#0003009000466601 
(3.900634) can0 120#0035835a154ef000 
(3.901441) can0 140#810320fcdf000000 
(3.901672) can0 280#03ce03ce03cc03ce 
(3.904685) can0 180#a09600182e00     
(3.910200) can0 110#0221e51f00201f00 
(3.910429) can0 120#0035835a154ef000 
(3.910674) can0 1a0#000c306100000000 
(3.911437) can0 140#820320fcde000000 
(3.911669) can0 280#03cd03cc03ce03cb 
(3.914672) can0 180#a08000183800     
(3.920196) can0 110#0221e31f00201f00 
(3.920429) can0 120#0035835a154ef000 
(3.921457) can0 140#830320fcdd000000 
(3.921679) can0 280#03ce03cd03cf03cb 
(3.924672) can0 180#a0fa00184200     
(3.930175) can0 110#0221e31f00201f00 
(3.930409) can0 120#0035835a154ef000 
(3.931450) can0 140#800320fce0000000 
(3.931673) can0 280#03cf03ce03c803cd 
(3.931912) can0 290#1a0015001b001580 
(3.934687) can0 180#a0f400184c00     
(3.940233) can0 110#0221f51f00201f00 
(3.940467) can0 120#00358359154ef000 
(3.941451) can0 140#810320fcdf000000 
(3.941683) can0 280#03d003d003cb03d0 
(3.941873) can0 383#2c000040ff       
(3.944690) can0 180#a0ee00185600     
(3.950225) can0 110#0221ed1f00201f00 
(3.950457) can0 120#0035835a154ef000 
(3.951467) can0 140#820320fcde000000 
(3.951689) can0 280#03cc03cd03ca03cc 
(3.954748) can0 180#a0d800186000     
(3.960355) can0 110#0222011f00201f00 
(3.960591) can0 120#00358359154ef000 
(3.960836) can0 1a0#000c306100000000 
(3.961441) can0 140#830320fcdd000000 
(3.961678) can0 280#03cd03cd03cd03d0 
(3.964668) can0 180#a0d200186a00     
(3.970231) can0 110#0222011f00201f00 
(3.970467) can0 120#00358359154ef000 
(3.970712) can0 301#0000190000510300 
(3.971441) can0 140#800320fce0000000 
(3.971674) can0 280#03cd03cd03ca03c8 
(3.974671) can0 180#a0cc00187400     
(3.980258) can0 110#0221ff1f00201f00 
(3.980492) can0 120#00358359154ef000 
(3.981449) can0 140#810320fcdf000000 
(3.981677) can0 280#03ce03d203c903cf 
(3.984641) can0 380#e0ba5e00c3fb0000 
(3.984856) can0 180#a0c600187e00     
(3.985132) can0 381#097f00a0026f0004 
(3.990234) can0 110#0222141f00201f00 
(3.990478) can0 410#000e60408140ff00 
(3.990707) can0 120#00357359154ef000 
(3.991448) can0 140#820320fcde000000 
(3.991682) can0 280#03ce03ce03cb03cf 
(3.994673) can0 180#a03000188800     
(4.000871) can0 110#02220d1f00201f00 
(4.001115) can0 300#0003009000466901 
(4.001386) can0 120#00357359154f0000 
(4.001589) can0 140#830320fcdd000000 
(4.001829) can0 280#03cd03d003cf03cc 
(4.004687) can0 180#a02a00189200     
(4.010199) can0 110#02220d1f00201f00 
(4.010430) can0 120#00357359154ef000 
(4.010672) can0 1a0#000c306100000000 
(4.011450) can0 140#800320fce0000000 
(4.011677) can0 280#03d103d003cc03cd 
(4.014675) can0 180#a02400189c00     
(4.020194) can0 110#02221b1f00201f00 
(4.020422) can0 120#00357359154ef000 
(4.021457) can0 140#810320fcdf000000 
(4.021679) can0 280#03d103d203cc03cf 
(4.024668) can0 180#a01e0018a600     
(4.030153) can0 110#0222121f00201f00 
(4.030382) can0 120#00357359154ef000 
(4.031446) can0 140#820320fcde000000 
(4.031669) can0 280#03d003d203cc03cd 
(4.031909) can0 290#1a0015001b801580 
(4.034685) can0 180#a0080018b000     
(4.040167) can0 110#0222121f00201f00 
(4.040397) can0 120#00357359154ef000 
(4.041453) can0 140#830320fcdd000000 
(4.041679) can0 280#03cf03d003cd03cc 
(4.041868) can0 383#2c000040ff       
(4.044702) can0 180#a0020018ba00     
(4.050178) can0 110#02221f1f00201f00 
(4.050408) can0 120#00357359154ef000 
(4.051445) can0 140#800320fce0000000 
(4.051672) can0 280#03cf03d003cf03c9 
(4.054754) can0 180#a07c0018c400     
(4.060193) can0 110#0222131f00201f00 
(4.060422) can0 120#00357359154ef000 
(4.060665) can0 1a0#000c306100000000 
(4.061436) can0 140#810320fcdf000000 
(4.061670) can0 280#03d203d003cc03cd 
(4.064676) can0 180#a0760018ce00     
(4.070401) can0 110#0222211f00201f00 
(4.070629) can0 120#00357359154ef000 
(4.070874) can0 301#0000190000510300 
(4.071439) can0 140#820320fcde000000 
(4.071671) can0 280#03d103d203cc03d0 
(4.074676) can0 180#a0600018d800     
(4.080249) can0 110#0222211f00201f00 
(4.080478) can0 120#00357359154ef000 
(4.081444) can0 140#830320fcdd000000 
(4.081668) can0 280#03d003d303d603cd 
(4.084644) can0 380#30ba5e00c3fb0000 
(4.084852) can0 180#a05a0018e200     
(4.085126) can0 381#097f00a0026f0004 
(4.090259) can0 110#0222151f00201f00 
(4.090503) can0 410#000e6f408140ff00 
(4.090728) can0 120#00357359154ef000 
(4.091475) can0 140#800320fce0000000 
(4.091681) can0 280#03d203d103d003d1 
(4.094663) can0 180#a0540018ec00     
(4.100227) can0 110#02221d1f00201f00 
(4.100466) can0 300#0003009000466b01 
(4.100698) can0 120#00357359154ef000 
(4.101450) can0 140#810320fcdf000000 
(4.101684) can0 280#03d203d303d003d3 
(4.104684) can0 180#a04e0018f600     
(4.110871) can0 110#02220d1f00201f00 
(4.111102) can0 120#00357359154ef000 
(4.111374) can0 1a0#000c306100000000 
(4.111593) can0 140#820320fcde000000 
(4.111829) can0 280#03d203d303cf03d0 
(4.114667) can0 180#a0b800180000     
(4.120240) can0 110#02220d1f00201f00 
(4.120471) can0 120#00357359154ef000 
(4.121442) can0 140#830320fcdd000000 
(4.121670) can0 280#03d303d203d203cf 
(4.124670) can0 180#a0b200180a00     
(4.130254) can0 110#02221b1f00201f00 
(4.130485) can0 120#00357359154ef000 
(4.131438) can0 140#800320fce0000000 
(4.131663) can0 280#03d203d203ce03cf 
(4.131905) can0 290#1a0015001b801600 
(4.134688) can0 180#a0ac00181400     
(4.140216) can0 110#02220f1f00201f00 
(4.140448) can0 120#00357359154ef000 
(4.141436) can0 140#810320fcdf000000 
(4.141661) can0 280#03d403d303cd03d1 
(4.141850) can0 383#2c000040ff       
(4.144691) can0 180#a0a600181e00     
(4.150170) can0 110#02220f1f00201f00 
(4.150401) can0 120#00357359154ef000 
(4.151435) can0 140#820320fcde000000 
(4.151660) can0 280#03d603d203cf03d2 
(4.154750) can0 180#a09000182800     
(4.160189) can0 110#0222201f00201f00 
(4.160420) can0 120#00357359154ef000 
(4.160664) can0 1a0#000c306100000000 
(4.161436) can0 140#830320fcdd000000 
(4.161666) can0 280#03d403d403cf03ce 
(4.164667) can0 180#a08a00183200     
(4.170198) can0 110#0222171f00201f00 
(4.170431) can0 120#00357359154ef000 
(4.170673) can0 301#0000190000510300 
(4.171431) can0 140#800320fce0000000 
(4.171664) can0 280#03d403d303cd03d1 
(4.174671) can0 180#a08400183c00     
(4.180407) can0 110#0222271f00201f00 
(4.180640) can0 120#00357359154ef000 
(4.180882) can0 510#047e362700000000 
(4.181428) can0 140#810320fcdf000000 
(4.181659) can0 280#03d403d303ce03d2 
(4.184644) can0 380#60ba5e00c3fb0000 
(4.184863) can0 180#a0fe00184600     
(4.185132) can0 381#097f00a0026f0004 
(4.190234) can0 110#0222271f00201f00 
(4.190482) can0 410#000e7a4081417d00 
(4.190713) can0 120#00357359154ef000 
(4.191428) can0 140#820320fcde000000 
(4.191662) can0 280#03d303d303cd03d3 
(4.194668) can0 180#a0e800185000     
(4.200279) can0 110#0222201f00201f00 
(4.200519) can0 300#0003009000466d01 
(4.200754) can0 120#00357359154f0000 
(4.201438) can0 140#830320fcdd000000 
(4.201673) can0 280#03d403d703d003cb 
(4.204683) can0 180#a0e200185a00     
(4.210239) can0 110#0222361f00201f00 
(4.210473) can0 120#00357359154f0000 
(4.210717) can0 1a0#000c306100000000 
(4.211428) can0 140#800320fce0000000 
(4.211663) can0 280#03d303d603d103d3 
(4.214692) can0 180#a0dc00186400     
(4.220860) can0 110#02222c1f00201f00 
(4.221095) can0 120#00357359154f0000 
(4.221432) can0 140#810320fcdf000000 
(4.221662) can0 280#03d403d603d103cb 
(4.224670) can0 180#a0d600186e00     
(4.230243) can0 110#02222c1f00201f00 
(4.230479) can0 120#00357359154f0000 
(4.231462) can0 140#820320fcde000000 
(4.231689) can0 280#03d503d303d203d8 
(4.231928) can0 290#1a8015801c001600 
(4.234686) can0 180#a0c000187800     
(4.240312) can0 110#0222401f00201f00 
(4.240549) can0 120#00357359154f0000 
(4.241430) can0 140#830320fcdd000000 
(4.241663) can0 280#03d503d303d403d0 
(4.241852) can0 383#2c000040ff       
(4.244695) can0 180#a03a00188200     
(4.250205) can0 110#0222391f00201f00 
(4.250441) can0 120#00357359154f0000 
(4.251445) can0 140#800320fce0000000 
(4.251672) can0 280#03d403d603d103cf 
(4.254748) can0 180#a03400188c00     
(4.260204) can0 110#0222391f00201f00 
(4.260440) can0 120#00357359154f0000 
(4.260684) can0 1a0#000c306100000000 
(4.261435) can0 140#810320fcdf000000 
(4.261669) can0 280#03d403d703cf03d1 
(4.264677) can0 180#a02e00189600     
(4.270168) can0 110#02224a1f00201f00 
(4.270400) can0 120#00357358154f0000 
(4.270643) can0 301#0000190000510300 
(4.271440) can0 140#820320fcde000000 
(4.271671) can0 280#03d403d603d603d3 
(4.274670) can0 180#a0180018a000     
(4.280195) can0 110#02223b1f00201f00 
(4.280432) can0 120#00357359154f0000 
(4.281447) can0 140#830320fcdd000000 
(4.281673) can0 280#03d603d503d403d2 
(4.284639) can0 380#b0ba5e00c3fb0000 
(4.284857) can0 180#a0120018aa00     
(4.285134) can0 381#097f00a0026f0004 
(4.290173) can0 110#02224f1f00201f00 
(4.290417) can0 410#000e7a40ff417d00 
(4.290654) can0 120#00357358154f0000 
(4.291434) can0 140#800320fce0000000 
(4.291668) can0 280#03d603d603d303d1 
(4.294687) can0 180#a00c0018b400     
(4.300202) can0 110#02224f1f00201f00 
(4.300443) can0 300#0003009000467001 
(4.300681) can0 120#00357358154f0000 
(4.301432) can0 140#810320fcdf000000 
(4.301666) can0 280#03d503d503d203d0 
(4.304691) can0 180#a0060018be00     
(4.310269) can0 110#0222461f00201f00 
(4.310506) can0 120#00357358154f0000 
(4.310754) can0 1a0#000c306100000000 
(4.311455) can0 140#820320fcde000000 
(4.311682) can0 280#03d603d703d303d5 
(4.311845) can0 295#03541e56         
(4.314734) can0 180#a0700018c800     
(4.320267) can0 110#0222571f00201f00 
(4.320504) can0 120#00357358154f0000 
(4.321441) can0 140#830320fcdd000000 
(4.321665) can0 280#03d603d603dc03d3 
(4.324682) can0 180#a06a0018d200     
(4.330824) can0 110#0222451f00201f00 
(4.331060) can0 120#00357359154f0000 
(4.331431) can0 140#800320fce0000000 
(4.331663) can0 280#03d803d803d103d2 
(4.331903) can0 290#1a8015801c001680 
(4.334693) can0 180#a0640018dc00     
(4.340254) can0 110#0222451f00201f00 
(4.340487) can0 120#00357359154f0000 
(4.341453) can0 140#810320fcdf000000 
(4.341671) can0 280#03d403d703d403d4 
(4.341860) can0 383#2c000040ff       
(4.344692) can0 180#a05e0018e600     
(4.350266) can0 110#0222531f00201f00 
(4.350504) can0 120#00357358154f0000 
(4.351451) can0 140#820320fcde000000 
(4.351670) can0 280#03d703d803d603d9 
(4.354755) can0 180#a0480018f000     
(4.360263) can0 110#0222441f00201f00 
(4.360498) can0 120#00357359154f0000 
(4.360742) can0 1a0#000c306100000000 
(4.361431) can0 140#830320fcdd000000 
(4.361666) can0 280#03d503d803d903d7 
(4.364692) can0 180#a0420018fa00     
(4.370875) can0 110#02224f1f00201f00 
(4.371110) can0 120#00357359154f0000 
(4.371380) can0 301#0000190000510300 
(4.371601) can0 140#800320fce0000000 
(4.371834) can0 280#03d803d703da03d6 
(4.374673) can0 180#a0bc00180400     
(4.380240) can0 110#02224f1f00201f00 
(4.380475) can0 120#00357358154f0000 
(4.381435) can0 140#810320fcdf000000 
(4.381659) can0 280#03d903d703d603d6 
(4.384646) can0 380#e0ba5e00c3fb0000 
(4.384865) can0 180#a0b600180e00     
(4.385163) can0 381#097f00a0026f0004 
(4.390250) can0 110#0222431f00201f00 
(4.390493) can0 410#000e8940ff41fb00 
(4.390728) can0 120#00357359154f0000 
(4.391422) can0 140#820320fcde000000 
(4.391654) can0 280#03da03d903d703d9 
(4.394679) can0 180#a0a000181800     
(4.400208) can0 110#0222521f00201f00 
(4.400444) can0 300#0003009000467201 
(4.400682) can0 120#00357358154f0000 
(4.401433) can0 140#830320fcdd000000 
(4.401669) can0 280#03d803d703d603d5 
(4.404692) can0 180#a09a00182200     
(4.410191) can0 110#0222521f00201f00 
(4.410428) can0 120#00357358154f0000 
(4.410671) can0 1a0#000c306100000000 
